time (s),/Vpeak (V),/Vin (V)
0.000,1.650,1.650
5.859E-9,1.650,1.650
12.39E-9,1.650,1.650
25.46E-9,1.650,1.650
30.76E-9,1.650,1.650
36.24E-9,1.650,1.650
41.40E-9,1.650,1.650
46.30E-9,1.650,1.650
52.16E-9,1.650,1.650
54.18E-9,1.650,1.650
58.19E-9,1.650,1.650
63.17E-9,1.650,1.650
68.23E-9,1.650,1.650
74.35E-9,1.650,1.650
82.51E-9,1.650,1.650
95.10E-9,1.650,1.650
120.3E-9,1.650,1.651
169.7E-9,1.650,1.651
238.2E-9,1.651,1.651
305.9E-9,1.651,1.651
354.4E-9,1.651,1.651
394.0E-9,1.651,1.652
438.7E-9,1.652,1.652
496.4E-9,1.652,1.652
537.3E-9,1.652,1.652
579.9E-9,1.652,1.652
632.2E-9,1.652,1.653
708.3E-9,1.653,1.653
746.4E-9,1.653,1.653
822.4E-9,1.653,1.653
974.6E-9,1.654,1.654
1.279E-6,1.655,1.655
1.888E-6,1.657,1.658
2.506E-6,1.660,1.660
3.744E-6,1.665,1.666
6.218E-6,1.673,1.676
11.17E-6,1.689,1.694
17.17E-6,1.704,1.713
23.17E-6,1.718,1.725
29.17E-6,1.729,1.730
29.54E-6,1.730,1.730
29.59E-6,1.730,1.730
29.63E-6,1.730,1.730
29.66E-6,1.730,1.730
29.70E-6,1.730,1.730
29.74E-6,1.730,1.730
29.78E-6,1.730,1.730
29.84E-6,1.730,1.730
29.92E-6,1.730,1.730
30.03E-6,1.730,1.730
30.15E-6,1.730,1.730
30.30E-6,1.730,1.730
30.44E-6,1.730,1.730
30.58E-6,1.730,1.730
30.74E-6,1.730,1.730
30.94E-6,1.730,1.730
31.32E-6,1.730,1.730
31.71E-6,1.730,1.730
31.80E-6,1.730,1.730
31.99E-6,1.730,1.730
32.09E-6,1.730,1.730
32.13E-6,1.729,1.730
32.15E-6,1.729,1.729
32.16E-6,1.729,1.729
32.17E-6,1.729,1.729
32.18E-6,1.729,1.729
32.19E-6,1.729,1.729
32.22E-6,1.729,1.729
32.28E-6,1.729,1.729
32.41E-6,1.729,1.729
32.65E-6,1.729,1.729
33.13E-6,1.729,1.729
34.09E-6,1.729,1.728
36.02E-6,1.729,1.726
39.88E-6,1.729,1.720
45.81E-6,1.730,1.704
51.81E-6,1.730,1.683
57.81E-6,1.730,1.659
63.81E-6,1.730,1.634
69.81E-6,1.730,1.611
75.81E-6,1.730,1.591
81.81E-6,1.730,1.577
87.81E-6,1.730,1.571
93.81E-6,1.730,1.572
99.81E-6,1.730,1.580
105.8E-6,1.730,1.596
111.8E-6,1.730,1.617
117.8E-6,1.730,1.641
123.8E-6,1.730,1.666
129.8E-6,1.730,1.689
135.8E-6,1.730,1.709
141.8E-6,1.730,1.723
147.8E-6,1.730,1.729
153.8E-6,1.730,1.728
159.8E-6,1.730,1.720
165.8E-6,1.730,1.704
171.8E-6,1.730,1.683
177.8E-6,1.730,1.659
183.8E-6,1.730,1.634
189.8E-6,1.730,1.611
195.8E-6,1.730,1.591
201.8E-6,1.730,1.577
207.8E-6,1.730,1.571
213.8E-6,1.730,1.572
219.8E-6,1.730,1.580
225.8E-6,1.730,1.596
231.8E-6,1.730,1.617
237.8E-6,1.730,1.641
243.8E-6,1.729,1.666
249.8E-6,1.729,1.689
255.8E-6,1.729,1.709
261.8E-6,1.729,1.723
267.8E-6,1.729,1.729
273.8E-6,1.729,1.728
279.8E-6,1.729,1.720
285.8E-6,1.729,1.704
291.8E-6,1.729,1.683
297.8E-6,1.729,1.659
303.8E-6,1.729,1.634
309.8E-6,1.729,1.611
315.8E-6,1.729,1.591
321.8E-6,1.729,1.577
327.8E-6,1.729,1.571
333.8E-6,1.729,1.572
339.8E-6,1.729,1.580
345.8E-6,1.729,1.596
351.8E-6,1.729,1.617
357.8E-6,1.729,1.641
363.8E-6,1.729,1.666
369.8E-6,1.729,1.689
375.8E-6,1.729,1.709
381.8E-6,1.729,1.723
387.8E-6,1.729,1.729
393.8E-6,1.729,1.728
398.4E-6,1.729,1.722
402.6E-6,1.729,1.713
408.5E-6,1.729,1.695
414.5E-6,1.729,1.673
420.5E-6,1.729,1.648
426.5E-6,1.729,1.623
432.5E-6,1.729,1.601
438.5E-6,1.729,1.584
444.5E-6,1.729,1.573
450.5E-6,1.729,1.570
456.5E-6,1.729,1.575
462.5E-6,1.729,1.587
468.5E-6,1.729,1.605
474.5E-6,1.729,1.627
480.5E-6,1.729,1.652
486.5E-6,1.729,1.677
492.5E-6,1.729,1.699
498.5E-6,1.729,1.716
504.5E-6,1.729,1.727
506.0E-6,1.729,1.728
506.8E-6,1.729,1.729
507.0E-6,1.729,1.729
507.3E-6,1.729,1.729
507.4E-6,1.729,1.729
507.6E-6,1.729,1.729
507.7E-6,1.729,1.729
507.8E-6,1.729,1.729
507.8E-6,1.729,1.729
507.8E-6,1.729,1.729
507.8E-6,1.729,1.729
507.8E-6,1.729,1.729
507.8E-6,1.729,1.730
507.9E-6,1.729,1.730
508.0E-6,1.730,1.730
508.1E-6,1.730,1.730
508.5E-6,1.730,1.730
508.7E-6,1.730,1.730
508.9E-6,1.730,1.730
509.0E-6,1.730,1.730
509.1E-6,1.730,1.730
509.3E-6,1.730,1.730
509.3E-6,1.730,1.730
509.4E-6,1.730,1.730
509.5E-6,1.730,1.730
509.6E-6,1.730,1.730
509.7E-6,1.730,1.730
509.8E-6,1.730,1.730
510.0E-6,1.730,1.730
510.1E-6,1.730,1.730
510.3E-6,1.730,1.730
510.5E-6,1.730,1.730
510.7E-6,1.730,1.730
510.8E-6,1.730,1.730
511.1E-6,1.730,1.730
511.4E-6,1.730,1.730
511.8E-6,1.730,1.730
512.0E-6,1.730,1.730
512.1E-6,1.730,1.730
512.1E-6,1.730,1.730
512.1E-6,1.730,1.730
512.1E-6,1.730,1.730
512.1E-6,1.730,1.730
512.1E-6,1.730,1.730
512.2E-6,1.730,1.729
512.3E-6,1.730,1.729
512.4E-6,1.730,1.729
512.8E-6,1.730,1.729
513.5E-6,1.730,1.729
514.9E-6,1.730,1.727
517.6E-6,1.730,1.724
523.2E-6,1.730,1.712
529.2E-6,1.730,1.693
535.2E-6,1.730,1.670
541.2E-6,1.730,1.645
547.2E-6,1.730,1.621
553.2E-6,1.730,1.599
559.2E-6,1.730,1.583
565.2E-6,1.730,1.573
571.2E-6,1.730,1.570
577.2E-6,1.730,1.576
583.2E-6,1.730,1.588
589.2E-6,1.730,1.607
595.2E-6,1.730,1.630
601.2E-6,1.730,1.655
607.2E-6,1.730,1.679
613.2E-6,1.730,1.701
619.2E-6,1.730,1.717
625.2E-6,1.730,1.727
626.7E-6,1.730,1.729
627.4E-6,1.730,1.729
627.8E-6,1.730,1.729
627.9E-6,1.730,1.730
627.9E-6,1.730,1.730
627.9E-6,1.730,1.730
628.0E-6,1.730,1.730
628.0E-6,1.730,1.730
628.0E-6,1.730,1.730
628.1E-6,1.730,1.730
628.2E-6,1.730,1.730
628.4E-6,1.730,1.730
628.9E-6,1.730,1.730
629.2E-6,1.730,1.730
629.4E-6,1.730,1.730
629.6E-6,1.730,1.730
629.8E-6,1.730,1.730
630.0E-6,1.730,1.730
630.2E-6,1.730,1.730
630.3E-6,1.730,1.730
630.5E-6,1.730,1.730
630.7E-6,1.730,1.730
630.8E-6,1.730,1.730
631.1E-6,1.730,1.730
631.4E-6,1.730,1.730
631.8E-6,1.730,1.730
632.0E-6,1.730,1.730
632.1E-6,1.730,1.730
632.1E-6,1.730,1.730
632.1E-6,1.730,1.730
632.1E-6,1.730,1.730
632.1E-6,1.730,1.730
632.1E-6,1.730,1.730
632.2E-6,1.730,1.730
632.3E-6,1.730,1.729
632.4E-6,1.730,1.729
632.8E-6,1.730,1.729
633.5E-6,1.730,1.729
634.9E-6,1.730,1.727
637.7E-6,1.730,1.724
643.3E-6,1.730,1.711
649.3E-6,1.730,1.693
655.3E-6,1.730,1.670
661.3E-6,1.730,1.645
667.3E-6,1.730,1.620
673.3E-6,1.730,1.599
679.3E-6,1.730,1.582
685.3E-6,1.730,1.572
691.3E-6,1.730,1.570
697.3E-6,1.730,1.576
703.3E-6,1.730,1.589
709.3E-6,1.730,1.607
715.3E-6,1.730,1.630
721.3E-6,1.730,1.655
727.3E-6,1.730,1.680
733.3E-6,1.730,1.701
739.3E-6,1.730,1.718
745.3E-6,1.730,1.728
746.0E-6,1.730,1.728
747.5E-6,1.730,1.729
747.6E-6,1.730,1.729
747.8E-6,1.730,1.730
747.9E-6,1.730,1.730
747.9E-6,1.730,1.730
747.9E-6,1.730,1.730
747.9E-6,1.730,1.730
747.9E-6,1.730,1.730
747.9E-6,1.730,1.730
747.9E-6,1.730,1.730
748.0E-6,1.730,1.730
748.0E-6,1.730,1.730
748.1E-6,1.730,1.730
748.4E-6,1.730,1.730
748.9E-6,1.730,1.730
749.1E-6,1.730,1.730
749.3E-6,1.730,1.730
749.5E-6,1.730,1.730
749.7E-6,1.730,1.730
749.8E-6,1.730,1.730
750.0E-6,1.730,1.730
750.1E-6,1.730,1.730
750.3E-6,1.730,1.730
750.5E-6,1.730,1.730
750.6E-6,1.730,1.730
750.8E-6,1.730,1.730
751.0E-6,1.730,1.730
751.4E-6,1.730,1.730
751.7E-6,1.730,1.730
751.9E-6,1.730,1.730
751.9E-6,1.730,1.730
752.0E-6,1.730,1.730
752.1E-6,1.730,1.730
752.1E-6,1.730,1.730
752.1E-6,1.730,1.730
752.1E-6,1.730,1.730
752.1E-6,1.730,1.730
752.1E-6,1.730,1.730
752.2E-6,1.730,1.730
752.3E-6,1.730,1.729
752.5E-6,1.730,1.729
752.9E-6,1.730,1.729
753.7E-6,1.730,1.729
755.4E-6,1.730,1.727
758.6E-6,1.730,1.722
764.6E-6,1.730,1.708
770.6E-6,1.730,1.688
776.6E-6,1.730,1.664
782.6E-6,1.730,1.639
788.6E-6,1.730,1.615
794.6E-6,1.730,1.595
800.6E-6,1.730,1.579
806.6E-6,1.730,1.571
812.6E-6,1.730,1.571
818.6E-6,1.730,1.578
824.6E-6,1.730,1.592
830.6E-6,1.730,1.612
836.6E-6,1.730,1.636
842.6E-6,1.730,1.661
848.6E-6,1.730,1.685
854.6E-6,1.730,1.705
860.6E-6,1.730,1.721
866.6E-6,1.730,1.729
872.6E-6,1.730,1.729
878.6E-6,1.730,1.722
884.6E-6,1.730,1.708
890.6E-6,1.730,1.688
896.6E-6,1.730,1.664
902.6E-6,1.730,1.639
908.6E-6,1.730,1.615
914.6E-6,1.730,1.595
920.6E-6,1.730,1.579
926.6E-6,1.730,1.571
932.6E-6,1.730,1.571
938.6E-6,1.730,1.578
944.6E-6,1.730,1.592
950.6E-6,1.730,1.612
956.6E-6,1.730,1.636
962.6E-6,1.730,1.661
968.6E-6,1.730,1.685
974.6E-6,1.730,1.705
980.6E-6,1.730,1.721
986.6E-6,1.730,1.729
992.6E-6,1.730,1.729
998.6E-6,1.730,1.722
1.005E-3,1.730,1.708
1.011E-3,1.730,1.688
1.017E-3,1.730,1.664
1.023E-3,1.730,1.639
1.029E-3,1.730,1.615
1.035E-3,1.730,1.595
1.041E-3,1.730,1.579
1.047E-3,1.730,1.571
1.053E-3,1.730,1.571
1.059E-3,1.730,1.578
1.065E-3,1.730,1.592
1.071E-3,1.730,1.612
1.077E-3,1.730,1.636
1.083E-3,1.730,1.661
1.089E-3,1.730,1.685
1.095E-3,1.730,1.705
1.101E-3,1.730,1.721
1.107E-3,1.730,1.729
1.113E-3,1.730,1.729
1.119E-3,1.730,1.722
1.125E-3,1.730,1.708
1.131E-3,1.730,1.688
1.137E-3,1.730,1.664
1.143E-3,1.730,1.639
1.149E-3,1.730,1.615
1.155E-3,1.730,1.595
1.161E-3,1.730,1.579
1.167E-3,1.730,1.571
1.173E-3,1.730,1.571
1.179E-3,1.730,1.578
1.185E-3,1.730,1.592
1.191E-3,1.730,1.612
1.197E-3,1.730,1.636
1.203E-3,1.730,1.661
1.209E-3,1.730,1.685
1.215E-3,1.730,1.705
1.221E-3,1.730,1.721
1.227E-3,1.730,1.729
1.233E-3,1.730,1.729
1.239E-3,1.730,1.722
1.245E-3,1.730,1.708
1.251E-3,1.730,1.688
1.257E-3,1.730,1.664
1.263E-3,1.730,1.639
1.269E-3,1.730,1.615
1.275E-3,1.730,1.595
1.281E-3,1.730,1.579
1.287E-3,1.730,1.571
1.293E-3,1.730,1.571
1.299E-3,1.730,1.578
1.305E-3,1.730,1.592
1.311E-3,1.730,1.612
1.317E-3,1.730,1.636
1.323E-3,1.730,1.661
1.329E-3,1.729,1.685
1.335E-3,1.729,1.705
1.341E-3,1.729,1.721
1.347E-3,1.729,1.729
1.353E-3,1.729,1.729
1.359E-3,1.729,1.722
1.365E-3,1.729,1.708
1.371E-3,1.729,1.688
1.377E-3,1.729,1.664
1.383E-3,1.729,1.639
1.389E-3,1.729,1.615
1.395E-3,1.729,1.595
1.401E-3,1.729,1.579
1.407E-3,1.729,1.571
1.413E-3,1.729,1.571
1.419E-3,1.729,1.578
1.425E-3,1.729,1.592
1.431E-3,1.729,1.612
1.437E-3,1.729,1.636
1.443E-3,1.729,1.661
1.449E-3,1.729,1.685
1.455E-3,1.729,1.705
1.461E-3,1.729,1.721
1.467E-3,1.729,1.729
1.473E-3,1.729,1.729
1.479E-3,1.729,1.722
1.485E-3,1.729,1.708
1.491E-3,1.729,1.688
1.497E-3,1.729,1.664
1.503E-3,1.729,1.639
1.509E-3,1.729,1.615
1.515E-3,1.729,1.595
1.521E-3,1.729,1.579
1.527E-3,1.729,1.571
1.533E-3,1.729,1.571
1.539E-3,1.729,1.578
1.545E-3,1.729,1.592
1.551E-3,1.729,1.612
1.557E-3,1.729,1.636
1.563E-3,1.729,1.661
1.569E-3,1.729,1.685
1.575E-3,1.729,1.705
1.581E-3,1.729,1.721
1.587E-3,1.729,1.729
1.593E-3,1.729,1.729
1.599E-3,1.729,1.722
1.605E-3,1.729,1.708
1.611E-3,1.729,1.688
1.617E-3,1.729,1.664
1.623E-3,1.729,1.639
1.629E-3,1.729,1.615
1.635E-3,1.729,1.595
1.641E-3,1.729,1.579
1.647E-3,1.729,1.571
1.653E-3,1.729,1.571
1.659E-3,1.729,1.578
1.665E-3,1.729,1.592
1.671E-3,1.729,1.612
1.677E-3,1.729,1.636
1.683E-3,1.729,1.661
1.689E-3,1.729,1.685
1.695E-3,1.729,1.705
1.701E-3,1.729,1.721
1.707E-3,1.729,1.729
1.713E-3,1.729,1.729
1.719E-3,1.729,1.722
1.725E-3,1.729,1.708
1.731E-3,1.729,1.688
1.737E-3,1.729,1.664
1.743E-3,1.729,1.639
1.749E-3,1.729,1.615
1.755E-3,1.729,1.595
1.761E-3,1.729,1.579
1.767E-3,1.729,1.571
1.773E-3,1.729,1.571
1.779E-3,1.729,1.578
1.785E-3,1.729,1.592
1.791E-3,1.729,1.612
1.797E-3,1.729,1.636
1.803E-3,1.729,1.661
1.809E-3,1.729,1.685
1.815E-3,1.729,1.705
1.821E-3,1.729,1.721
1.827E-3,1.729,1.729
1.833E-3,1.729,1.729
1.839E-3,1.729,1.722
1.845E-3,1.729,1.708
1.851E-3,1.729,1.688
1.857E-3,1.729,1.664
1.863E-3,1.729,1.639
1.869E-3,1.729,1.615
1.875E-3,1.729,1.595
1.881E-3,1.729,1.579
1.887E-3,1.729,1.571
1.893E-3,1.729,1.571
1.899E-3,1.729,1.578
1.905E-3,1.729,1.592
1.911E-3,1.729,1.612
1.917E-3,1.729,1.636
1.923E-3,1.729,1.661
1.929E-3,1.729,1.685
1.935E-3,1.729,1.705
1.941E-3,1.729,1.721
1.947E-3,1.729,1.729
1.953E-3,1.729,1.729
1.959E-3,1.729,1.722
1.965E-3,1.729,1.708
1.971E-3,1.729,1.688
1.977E-3,1.729,1.664
1.983E-3,1.729,1.639
1.989E-3,1.729,1.615
1.995E-3,1.729,1.595
2.001E-3,1.729,1.579
2.007E-3,1.729,1.571
2.013E-3,1.729,1.571
2.019E-3,1.729,1.578
2.025E-3,1.729,1.592
2.031E-3,1.729,1.612
2.037E-3,1.729,1.636
2.043E-3,1.729,1.661
2.049E-3,1.729,1.685
2.055E-3,1.729,1.705
2.061E-3,1.729,1.721
2.067E-3,1.729,1.729
2.073E-3,1.729,1.729
2.079E-3,1.729,1.722
2.085E-3,1.729,1.708
2.091E-3,1.729,1.688
2.097E-3,1.729,1.664
2.103E-3,1.729,1.639
2.109E-3,1.729,1.615
2.115E-3,1.729,1.595
2.121E-3,1.729,1.579
2.127E-3,1.729,1.571
2.133E-3,1.729,1.571
2.139E-3,1.729,1.578
2.145E-3,1.729,1.592
2.151E-3,1.729,1.612
2.157E-3,1.729,1.636
2.163E-3,1.729,1.661
2.169E-3,1.729,1.685
2.175E-3,1.729,1.705
2.181E-3,1.729,1.721
2.187E-3,1.729,1.729
2.193E-3,1.729,1.729
2.199E-3,1.729,1.722
2.205E-3,1.729,1.708
2.211E-3,1.729,1.688
2.217E-3,1.729,1.664
2.223E-3,1.729,1.639
2.229E-3,1.729,1.615
2.235E-3,1.729,1.595
2.241E-3,1.729,1.579
2.247E-3,1.729,1.571
2.253E-3,1.729,1.571
2.259E-3,1.729,1.578
2.265E-3,1.729,1.592
2.271E-3,1.729,1.612
2.277E-3,1.729,1.636
2.283E-3,1.729,1.661
2.289E-3,1.729,1.685
2.295E-3,1.729,1.705
2.301E-3,1.729,1.721
2.307E-3,1.729,1.729
2.313E-3,1.729,1.729
2.319E-3,1.729,1.722
2.325E-3,1.729,1.708
2.331E-3,1.729,1.688
2.337E-3,1.729,1.664
2.343E-3,1.729,1.639
2.349E-3,1.729,1.615
2.355E-3,1.729,1.595
2.361E-3,1.729,1.579
2.367E-3,1.729,1.571
2.373E-3,1.729,1.571
2.379E-3,1.729,1.578
2.385E-3,1.729,1.592
2.391E-3,1.729,1.612
2.397E-3,1.729,1.636
2.403E-3,1.729,1.661
2.409E-3,1.729,1.685
2.415E-3,1.729,1.705
2.421E-3,1.729,1.721
2.427E-3,1.729,1.729
2.433E-3,1.729,1.729
2.439E-3,1.729,1.722
2.445E-3,1.729,1.708
2.451E-3,1.729,1.688
2.457E-3,1.729,1.664
2.463E-3,1.729,1.639
2.469E-3,1.729,1.615
2.475E-3,1.729,1.595
2.481E-3,1.729,1.579
2.487E-3,1.729,1.571
2.493E-3,1.729,1.571
2.499E-3,1.729,1.578
2.505E-3,1.729,1.592
2.511E-3,1.729,1.612
2.517E-3,1.729,1.636
2.523E-3,1.729,1.661
2.529E-3,1.729,1.685
2.535E-3,1.729,1.705
2.541E-3,1.729,1.721
2.547E-3,1.729,1.729
2.553E-3,1.729,1.729
2.559E-3,1.729,1.722
2.565E-3,1.729,1.708
2.571E-3,1.729,1.688
2.577E-3,1.729,1.664
2.583E-3,1.729,1.639
2.589E-3,1.729,1.615
2.595E-3,1.729,1.595
2.601E-3,1.729,1.579
2.607E-3,1.729,1.571
2.613E-3,1.729,1.571
2.619E-3,1.729,1.578
2.625E-3,1.729,1.592
2.631E-3,1.729,1.612
2.637E-3,1.729,1.636
2.643E-3,1.729,1.661
2.649E-3,1.729,1.685
2.655E-3,1.729,1.706
2.661E-3,1.729,1.721
2.667E-3,1.729,1.729
2.667E-3,1.729,1.729
2.667E-3,1.729,1.729
2.667E-3,1.729,1.729
2.667E-3,1.729,1.729
2.667E-3,1.729,1.729
2.668E-3,1.729,1.729
2.668E-3,1.729,1.729
2.668E-3,1.729,1.730
2.668E-3,1.729,1.730
2.668E-3,1.730,1.730
2.668E-3,1.730,1.730
2.668E-3,1.730,1.730
2.668E-3,1.730,1.730
2.668E-3,1.730,1.730
2.668E-3,1.730,1.730
2.669E-3,1.730,1.730
2.669E-3,1.730,1.730
2.669E-3,1.730,1.730
2.669E-3,1.730,1.730
2.669E-3,1.730,1.730
2.669E-3,1.730,1.730
2.670E-3,1.730,1.730
2.670E-3,1.730,1.730
2.670E-3,1.730,1.730
2.670E-3,1.730,1.730
2.671E-3,1.730,1.730
2.671E-3,1.730,1.730
2.671E-3,1.730,1.730
2.671E-3,1.730,1.730
2.672E-3,1.730,1.730
2.672E-3,1.730,1.730
2.672E-3,1.730,1.730
2.672E-3,1.730,1.730
2.672E-3,1.730,1.730
2.672E-3,1.730,1.730
2.672E-3,1.730,1.730
2.672E-3,1.730,1.730
2.672E-3,1.730,1.730
2.672E-3,1.730,1.730
2.672E-3,1.730,1.730
2.672E-3,1.730,1.729
2.673E-3,1.730,1.729
2.674E-3,1.730,1.729
2.675E-3,1.730,1.727
2.678E-3,1.730,1.724
2.683E-3,1.730,1.711
2.689E-3,1.730,1.692
2.695E-3,1.730,1.669
2.701E-3,1.730,1.644
2.707E-3,1.730,1.620
2.713E-3,1.730,1.598
2.719E-3,1.730,1.582
2.725E-3,1.730,1.572
2.731E-3,1.730,1.570
2.737E-3,1.730,1.576
2.743E-3,1.730,1.589
2.749E-3,1.730,1.608
2.755E-3,1.730,1.631
2.761E-3,1.730,1.656
2.767E-3,1.730,1.680
2.773E-3,1.730,1.702
2.779E-3,1.730,1.718
2.785E-3,1.730,1.728
2.786E-3,1.730,1.728
2.788E-3,1.730,1.729
2.788E-3,1.730,1.730
2.788E-3,1.730,1.730
2.788E-3,1.730,1.730
2.788E-3,1.730,1.730
2.788E-3,1.730,1.730
2.788E-3,1.730,1.730
2.788E-3,1.730,1.730
2.788E-3,1.730,1.730
2.789E-3,1.730,1.730
2.789E-3,1.730,1.730
2.789E-3,1.730,1.730
2.789E-3,1.730,1.730
2.790E-3,1.730,1.730
2.790E-3,1.730,1.730
2.790E-3,1.730,1.730
2.790E-3,1.730,1.730
2.790E-3,1.730,1.730
2.791E-3,1.730,1.730
2.791E-3,1.730,1.730
2.791E-3,1.730,1.730
2.791E-3,1.730,1.730
2.792E-3,1.730,1.730
2.792E-3,1.730,1.730
2.792E-3,1.730,1.730
2.792E-3,1.730,1.730
2.792E-3,1.730,1.730
2.792E-3,1.730,1.730
2.792E-3,1.730,1.730
2.792E-3,1.730,1.730
2.792E-3,1.730,1.730
2.792E-3,1.730,1.730
2.792E-3,1.730,1.730
2.792E-3,1.730,1.730
2.792E-3,1.730,1.730
2.792E-3,1.730,1.730
2.793E-3,1.730,1.729
2.793E-3,1.730,1.729
2.794E-3,1.730,1.728
2.796E-3,1.730,1.726
2.800E-3,1.730,1.719
2.806E-3,1.730,1.703
2.812E-3,1.730,1.681
2.818E-3,1.730,1.657
2.824E-3,1.730,1.632
2.830E-3,1.730,1.609
2.836E-3,1.730,1.590
2.842E-3,1.730,1.576
2.848E-3,1.730,1.570
2.854E-3,1.730,1.572
2.860E-3,1.730,1.581
2.866E-3,1.730,1.597
2.872E-3,1.730,1.619
2.878E-3,1.730,1.643
2.884E-3,1.730,1.668
2.890E-3,1.730,1.691
2.896E-3,1.730,1.710
2.902E-3,1.730,1.724
2.903E-3,1.730,1.725
2.905E-3,1.730,1.727
2.908E-3,1.730,1.729
2.914E-3,1.730,1.729
2.920E-3,1.730,1.720
2.926E-3,1.730,1.705
2.932E-3,1.730,1.684
2.938E-3,1.730,1.660
2.944E-3,1.730,1.635
2.950E-3,1.730,1.612
2.956E-3,1.730,1.592
2.962E-3,1.730,1.578
2.968E-3,1.730,1.571
2.974E-3,1.730,1.571
2.980E-3,1.730,1.580
2.986E-3,1.730,1.595
2.992E-3,1.730,1.616
2.998E-3,1.730,1.640
3.004E-3,1.730,1.665
3.010E-3,1.730,1.688
3.016E-3,1.730,1.708
3.022E-3,1.730,1.722
3.028E-3,1.730,1.729
3.034E-3,1.730,1.729
3.040E-3,1.730,1.720
3.046E-3,1.730,1.705
3.052E-3,1.730,1.684
3.058E-3,1.730,1.660
3.064E-3,1.730,1.635
3.070E-3,1.730,1.612
3.076E-3,1.730,1.592
3.082E-3,1.730,1.578
3.088E-3,1.730,1.571
3.094E-3,1.730,1.571
3.100E-3,1.730,1.580
3.106E-3,1.730,1.595
3.112E-3,1.730,1.616
3.118E-3,1.730,1.640
3.124E-3,1.730,1.665
3.130E-3,1.730,1.688
3.136E-3,1.730,1.708
3.142E-3,1.730,1.722
3.148E-3,1.730,1.729
3.154E-3,1.730,1.729
3.160E-3,1.730,1.720
3.166E-3,1.730,1.705
3.172E-3,1.730,1.684
3.178E-3,1.730,1.660
3.184E-3,1.730,1.635
3.190E-3,1.730,1.612
3.196E-3,1.730,1.592
3.202E-3,1.730,1.578
3.208E-3,1.730,1.571
3.214E-3,1.730,1.571
3.220E-3,1.730,1.580
3.226E-3,1.730,1.595
3.232E-3,1.730,1.616
3.238E-3,1.730,1.640
3.244E-3,1.730,1.665
3.250E-3,1.730,1.688
3.256E-3,1.730,1.708
3.262E-3,1.730,1.722
3.268E-3,1.730,1.729
3.274E-3,1.730,1.729
3.280E-3,1.730,1.720
3.286E-3,1.730,1.705
3.292E-3,1.730,1.684
3.298E-3,1.730,1.660
3.304E-3,1.730,1.635
3.310E-3,1.730,1.612
3.316E-3,1.730,1.592
3.322E-3,1.730,1.578
3.328E-3,1.730,1.571
3.334E-3,1.730,1.571
3.340E-3,1.730,1.580
3.346E-3,1.730,1.595
3.352E-3,1.730,1.616
3.358E-3,1.730,1.640
3.364E-3,1.730,1.665
3.370E-3,1.730,1.688
3.376E-3,1.730,1.708
3.382E-3,1.730,1.722
3.388E-3,1.730,1.729
3.394E-3,1.730,1.729
3.400E-3,1.730,1.720
3.406E-3,1.730,1.705
3.412E-3,1.730,1.684
3.418E-3,1.730,1.660
3.424E-3,1.730,1.635
3.430E-3,1.730,1.612
3.436E-3,1.730,1.592
3.442E-3,1.730,1.578
3.448E-3,1.730,1.571
3.454E-3,1.730,1.571
3.460E-3,1.730,1.580
3.466E-3,1.730,1.595
3.472E-3,1.730,1.616
3.478E-3,1.730,1.640
3.484E-3,1.730,1.665
3.490E-3,1.730,1.688
3.496E-3,1.730,1.708
3.502E-3,1.730,1.722
3.508E-3,1.730,1.729
3.514E-3,1.730,1.729
3.520E-3,1.730,1.720
3.526E-3,1.730,1.705
3.532E-3,1.730,1.684
3.538E-3,1.730,1.660
3.544E-3,1.730,1.635
3.550E-3,1.730,1.612
3.556E-3,1.730,1.592
3.562E-3,1.730,1.578
3.568E-3,1.730,1.571
3.574E-3,1.730,1.571
3.580E-3,1.730,1.580
3.586E-3,1.730,1.595
3.592E-3,1.730,1.616
3.598E-3,1.730,1.640
3.604E-3,1.730,1.665
3.610E-3,1.730,1.688
3.616E-3,1.730,1.708
3.622E-3,1.730,1.722
3.628E-3,1.730,1.729
3.634E-3,1.730,1.729
3.640E-3,1.730,1.720
3.646E-3,1.730,1.705
3.652E-3,1.730,1.684
3.658E-3,1.730,1.660
3.664E-3,1.730,1.635
3.670E-3,1.730,1.612
3.676E-3,1.730,1.592
3.682E-3,1.730,1.578
3.688E-3,1.730,1.571
3.694E-3,1.730,1.571
3.700E-3,1.730,1.580
3.706E-3,1.730,1.595
3.712E-3,1.730,1.616
3.718E-3,1.730,1.640
3.724E-3,1.730,1.665
3.730E-3,1.730,1.688
3.736E-3,1.730,1.708
3.742E-3,1.730,1.722
3.748E-3,1.730,1.729
3.754E-3,1.730,1.729
3.760E-3,1.730,1.720
3.766E-3,1.730,1.705
3.772E-3,1.730,1.684
3.778E-3,1.730,1.660
3.784E-3,1.730,1.635
3.790E-3,1.730,1.612
3.796E-3,1.730,1.592
3.802E-3,1.730,1.578
3.808E-3,1.730,1.571
3.814E-3,1.730,1.571
3.820E-3,1.730,1.580
3.826E-3,1.730,1.595
3.832E-3,1.730,1.616
3.838E-3,1.730,1.640
3.844E-3,1.730,1.665
3.850E-3,1.730,1.688
3.856E-3,1.730,1.708
3.862E-3,1.730,1.722
3.868E-3,1.730,1.729
3.874E-3,1.730,1.729
3.880E-3,1.730,1.720
3.886E-3,1.730,1.705
3.892E-3,1.730,1.684
3.898E-3,1.730,1.660
3.904E-3,1.730,1.635
3.910E-3,1.730,1.612
3.916E-3,1.730,1.592
3.922E-3,1.730,1.578
3.928E-3,1.730,1.571
3.934E-3,1.730,1.571
3.940E-3,1.730,1.580
3.946E-3,1.730,1.595
3.952E-3,1.730,1.616
3.958E-3,1.730,1.640
3.964E-3,1.730,1.665
3.970E-3,1.730,1.688
3.976E-3,1.730,1.708
3.982E-3,1.730,1.722
3.988E-3,1.730,1.729
3.994E-3,1.730,1.729
4.000E-3,1.730,1.720
