/Vpeak (Cout=1e-12) X,/Vpeak (Cout=1e-12) Y,/Vpeak (Cout=5.222222e-12) X,/Vpeak (Cout=5.222222e-12) Y,/Vpeak (Cout=7.333333e-12) X,/Vpeak (Cout=7.333333e-12) Y,/Vpeak (Cout=2e-11) X,/Vpeak (Cout=2e-11) Y,/Vin (Cout=1e-12) X,/Vin (Cout=1e-12) Y,/Vpeak (Cout=1.155556e-11) X,/Vpeak (Cout=1.155556e-11) Y
0,-2.335701070393864e-18,0,-2.335701070394259e-18,0,-2.335701070394259e-18,0,-2.335701070394259e-18,0,0,0,-2.335701070394259e-18
0.003,4.294931586397758e-12,0.003,4.262643876713931e-12,0.003,4.246681385370044e-12,0.003,4.153361832749489e-12,0.003,0,0.003,4.21511238857902e-12
0.009000000000000001,7.032654312975966e-10,0.009000000000000001,1.52191784744035e-10,0.009000000000000001,1.102225635153638e-10,0.009000000000000001,4.313985722280743e-11,0.009000000000000001,0,0.009000000000000001,7.173253906801933e-11
0.021,6.58359451910063e-10,0.021,1.681416364906698e-10,0.021,1.230679557470513e-10,0.021,4.871097444855124e-11,0.021,0,0.021,8.075111760422886e-11
0.04500000000000001,2.070628981799694e-13,0.04500000000000001,3.381866017520225e-13,0.04500000000000001,3.514531626176946e-13,0.04500000000000001,3.848656304416105e-13,0.04500000000000001,0,0.04500000000000001,3.667292436179639e-13
0.07500000000000001,-8.266620905851539e-14,0.07500000000000001,-1.067468760473758e-13,0.07500000000000001,-1.09145276727979e-13,0.07500000000000001,-1.15017818425327e-13,0.07500000000000001,0,0.07500000000000001,-1.11880029687835e-13
0.105,-8.34270677537511e-12,0.105,-3.320166310471696e-12,0.105,-2.567785929251655e-12,0.105,-1.227989536764208e-12,0.105,0,0.105,-1.819471618647047e-12
0.135,-2.917004804310675e-15,0.135,-6.371595372175916e-15,0.135,-6.931146792763189e-15,0.135,-9.026070898504267e-15,0.135,0,0.135,-7.741921866053812e-15
0.165,1.837305842038342e-12,0.165,9.265642622106149e-13,0.165,7.279770372956422e-13,0.165,3.507107054619607e-13,0.165,0,0.165,5.21056339761871e-13
0.195,7.724153974303015e-16,0.195,2.006201325212141e-15,0.195,2.211299060980157e-15,0.195,2.902470217714997e-15,0.195,0,0.195,2.492163628058027e-15
0.225,-1.600581971800353e-16,0.225,-4.136954909965873e-16,0.225,-4.539703750606663e-16,0.225,-5.786401683711658e-16,0.225,0,0.225,-5.067985078901061e-16
0.255,-2.654694534069596e-14,0.255,-1.815273787051819e-14,0.255,-1.489145279473328e-14,0.255,-8.397725508985217e-15,0.255,0,0.255,-1.134681321933868e-14
0.2775,-1.206037254259136e-17,0.2775,-4.293011318095545e-17,0.2775,-4.937761308993076e-17,0.2775,-7.536711081133793e-17,0.2775,0,0.2775,-5.912437829858959e-17
0.3,6.012970690279154e-15,0.3,4.970073640110121e-15,0.3,4.119867522818623e-15,0.3,2.314026002284102e-15,0.3,0,0.3,3.15306542957434e-15
0.3000000693279327,3.829169112623497e-06,0.3000000182601498,8.240895619682884e-07,0.3000000107179658,4.436509070144128e-07,0.3000000076599266,2.107831565857614e-07,0.3000000693279327,4.044124732982546e-06,0.3000000086304221,3.059674614965924e-07
0.3000001198816961,6.618065911172751e-06,0.3000000311670683,1.403363455167864e-06,0.3000000189094603,7.807478527188514e-07,0.3000000131051043,3.587518515231391e-07,0.3000001198816961,6.993084965128959e-06,0.3000000150729892,5.324724377815017e-07
0.3000002209892229,1.218944040089472e-05,0.3000000569809054,2.555866669515486e-06,0.3000000352924493,1.45084663310966e-06,0.3000000239954597,6.511775966896207e-07,0.3000002209892229,1.289099052084741e-05,0.3000000279581234,9.816716074711471e-07
0.3000003307951822,1.823300014059862e-05,0.3000000856201657,3.827682148693815e-06,0.3000000568780892,2.327470550494507e-06,0.3000000383682214,1.032060407481352e-06,0.3000003307951822,1.929627924224242e-05,0.3000000450203338,1.570732531507263e-06
0.300000451040995,2.484550979941476e-05,0.3000001172417951,5.226454889066345e-06,0.3000000811171444,3.306075483876207e-06,0.3000000549240854,1.466359441874148e-06,0.300000451040995,2.631052692228519e-05,0.3000000643756599,2.233714557143853e-06
0.3000005923395277,3.261116953215981e-05,0.3000001549987235,6.892008160288175e-06,0.3000001092713969,4.437935019138032e-06,0.3000000749321388,1.987669467887777e-06,0.3000005923395277,3.455279799854938e-05,0.3000000871718737,3.010227576020796e-06
0.3000007638042966,4.203142698898883e-05,0.3000002018991914,8.95719131067728e-06,0.300000143839728,5.823661505563038e-06,0.3000001006241071,2.654433214969254e-06,0.3000007638042966,4.455468344766178e-05,0.3000001156088881,3.975376142538405e-06
0.300000973857101,5.357052321663593e-05,0.3000002608220972,1.154968597908162e-05,0.3000001873662075,7.565731217527557e-06,0.3000001345116376,3.532891895822117e-06,0.300000973857101,5.680740884941859e-05,0.3000001520180385,5.208907200091831e-06
0.3000012348652314,6.79112825017707e-05,0.3000003359806608,1.485746952430753e-05,0.3000002429948322,9.791708948581012e-06,0.3000001799856152,4.714130325440195e-06,0.3000012348652314,7.203232265479143e-05,0.3000001993808836,6.813915311573768e-06
0.3000015646750288,8.604125819287616e-05,0.3000004337627825,1.916763426814286e-05,0.3000003154503505,1.269493864464175e-05,0.3000002421400843,6.338514444213556e-06,0.3000015646750288,9.127032985375982e-05,0.300000262203944,8.948308820430489e-06
0.3000019830748406,0.0001090622560380901,0.3000005623319373,2.485309296559739e-05,0.3000004113717069,1.655115815403194e-05,0.3000003272110849,8.588413844991684e-06,0.3000019830748406,0.0001156755424362443,0.3000003467015173,1.183531423328241e-05
0.3000024998275545,0.0001375374361686267,0.3000007283189124,3.223416817923098e-05,0.3000005378310004,2.166588749064991e-05,0.30000043769533,1.157209068909439e-05,0.3000024998275545,0.0001458171986313817,0.300000458673589,1.569990390331487e-05
0.3000030984908746,0.0001706007794122792,0.3000009288529226,4.123114046412393e-05,0.3000006965934324,2.815186283614395e-05,0.3000005646478213,1.511836500100707e-05,0.3000030984908746,0.0001807359673783593,0.3000005968419709,2.054889190106155e-05
0.3000037439852513,0.0002063623234317618,0.300001148067531,5.119581604321528e-05,0.3000008771850815,3.564404459845219e-05,0.300000692868078,1.888062456362933e-05,0.3000037439852513,0.0002183855121749012,0.3000007484620801,2.600636235576314e-05
0.3000044106668143,0.0002434465008485134,0.3000013694230025,6.143640286318218e-05,0.3000010630660926,4.352346209760333e-05,0.3000008137327205,2.266152622730475e-05,0.3000044106668143,0.0002572699848365223,0.3000008994126849,3.163167229377575e-05
0.300005094078293,0.0002816468239128235,0.300001586010553,7.167779891881721e-05,0.3000012444939829,5.142884612389166e-05,0.3000009262208817,2.645788281314523e-05,0.300005094078293,0.0002971293397071861,0.300001043623689,3.724449863833831e-05
0.3000058112079657,0.0003219592738075413,0.3000017991688693,8.20181205736529e-05,0.3000014201661538,5.933895984583105e-05,0.3000010332935944,3.038630234771353e-05,0.3000058112079657,0.0003389543013717633,0.3000011815832718,4.289275274080992e-05
0.3000066133891658,0.0003673434369504839,0.3000020165572542,9.286968231949831e-05,0.3000015942550887,6.747398735643939e-05,0.3000011409334211,3.469422575234868e-05,0.3000066133891658,0.0003857385157942372,0.3000013178149067,4.878967750630935e-05
0.3000076994381381,0.0004292512570970631,0.3000022561644302,0.0001052085139583148,0.3000017767565621,7.635253405145248e-05,0.3000012611473802,3.994652235590487e-05,0.3000076994381381,0.0004490762616765065,0.3000014617489841,5.539772695206723e-05
0.3000085342870651,0.0004771502838634879,0.3000025861968945,0.0001228061079101072,0.3000019934119686,8.735739968026673e-05,0.3000014540280541,4.92069664004832e-05,0.3000085342870651,0.0004977626079605835,0.3000016390909782,6.40585577505152e-05
0.3000093481276613,0.0005240454087210844,0.3000029173476148,0.0001410157715674994,0.3000021799165195,9.718956555818974e-05,0.3000015953308351,5.647251032200106e-05,0.3000093481276613,0.0005452224956720986,0.3000017870408048,7.166002802028764e-05
0.3000101275669842,0.0005690950899113049,0.3000031567539901,0.0001544312684788014,0.3000023921043771,0.0001086930137281169,0.3000017065306066,6.237881516253882e-05,0.3000101275669842,0.0005906750334530309,0.3000019430221568,7.995569834594593e-05
0.3000108998156186,0.0006138208978669482,0.3000033829980202,0.0001672358183966165,0.300002583456867,0.0001192792307698599,0.3000018204032744,6.852807777627349e-05,0.3000108998156186,0.0006357070859270009,0.3000020889436479,8.790175483002342e-05
0.3000117189678037,0.000661328710949694,0.3000036182948564,0.0001806337364925251,0.3000027673145299,0.0001295789650787457,0.30000194137459,7.512297539001598e-05,0.3000117189678037,0.0006834729532304296,0.3000022333719264,9.588197598871817e-05
0.3000126222676018,0.0007137651856906063,0.3000038748844113,0.0001952995333426027,0.3000029610328024,0.0001405165342165517,0.3000020812654452,8.279006083757888e-05,0.3000126222676018,0.0007361440691209808,0.3000023881108815,0.0001045092428025385
0.3000136531975539,0.0007736460797431418,0.3000041733585574,0.0002123990008842978,0.3000031738688411,0.0001525930388711039,0.3000022531266652,9.223640189175032e-05,0.3000136531975539,0.0007962553197153888,0.3000025615706545,0.0001142337199295076
0.3000148663862788,0.0008441380536482974,0.300004533531862,0.0002330610773429539,0.3000034194333562,0.0001665684277819707,0.3000024737434988,0.0001043788727153782,0.3000148663862788,0.0008669910314610674,0.3000027654463681,0.0001257000415295187
0.3000163382748474,0.0009296766275812897,0.3000049835074797,0.0002588926788524157,0.300003714476506,0.0001833882092322023,0.3000027720015914,0.0001208020875757908,0.3000163382748474,0.0009528065556234366,0.3000030154046686,0.0001397818725313133
0.30001819169522,0.001037393420991555,0.3000055700270825,0.0002925720370411067,0.3000040831049526,0.0002044205345781567,0.3000032057993786,0.0001446895654047483,0.30001819169522,0.001060860541134967,0.3000033358215277,0.0001578463968490963
0.3000206454715251,0.001179997243541747,0.3000063819507309,0.0003391968950880887,0.300004566247869,0.000231995240623795,0.3000039238224843,0.0001842259698800202,0.3000206454715251,0.001203904871723671,0.3000037710007304,0.0001823860927942947
0.3000241431344653,0.001383249755809134,0.300007620937661,0.0004103429202383343,0.3000052432164226,0.0002706340993594316,0.3000052531649553,0.0002574287737670647,0.3000241431344653,0.001407782962943083,0.3000044154030133,0.0002187231818154896
0.3000297869451741,0.001711169037220673,0.3000099160987235,0.0005421294076160035,0.3000062997000693,0.0003309313759248875,0.3000069723191304,0.0003521406610911842,0.3000297869451741,0.001736709471313908,0.3000055319040871,0.0002816779207098923
0.3000410745665915,0.002366836546468453,0.3000135815750439,0.0007525907554302809,0.3000083718391545,0.0004491900226404106,0.3000087318082779,0.0004491911605798786,0.3000410745665915,0.002394376877260296,0.300007532733949,0.0003944992717255636
0.3000555076752852,0.003204898931683989,0.300017998338485,0.001006199106711382,0.3000114139918034,0.0006228113970093397,0.3000103326129961,0.0005376950118502622,0.3000555076752852,0.003234954055755912,0.3000100395916105,0.0005358873283647038
0.3000714706415502,0.004131398522336599,0.3000227364769573,0.00127831410428036,0.3000149594609056,0.0008251916953100562,0.3000117198036293,0.0006146694312676129,0.3000714706415502,0.004164158536214935,0.3000126726205594,0.0006844839374517471
0.3000882620145507,0.005105564282427422,0.3000273496300108,0.001543368560699106,0.3000186404286667,0.001035397738239631,0.3000129342343935,0.0006823875990443329,0.3000882620145507,0.00514105114829852,0.3000151537463884,0.0008246791926216703
0.3001049388447249,0.006072704510952542,0.3000315806452562,0.001786647189278773,0.3000220968193608,0.001232941863981742,0.3000140474331219,0.0007448279756279703,0.3001049388447249,0.006110738813650235,0.3000173541310284,0.0009492530781486224
0.3001212171308321,0.007016410968556079,0.3000354575388972,0.002009795796781632,0.3000252058989006,0.001410860555175059,0.3000151396915832,0.0008065037349002856,0.3001212171308321,0.007056733082107969,0.3000193109350484,0.001060329353111917
0.3001373699281972,0.007952571611156901,0.3000391151391546,0.002220596795159591,0.3000280366091537,0.001573121525011976,0.30001632539868,0.0008739451943057156,0.3001373699281972,0.00799492746536315,0.3000211180332419,0.001163239965692832
0.300153979255516,0.00891494505505082,0.3000427401451223,0.002429837941066701,0.3000307129797692,0.001726848285679153,0.3000179587559056,0.0009676030374806771,0.300153979255516,0.008959111614586235,0.3000228872877374,0.001264370017631298
0.3001722100287968,0.00997100015499257,0.300046623734928,0.002654387125073661,0.3000333972404815,0.001881387466644962,0.3000196172419219,0.001063381768679305,0.3001722100287968,0.01001680759540341,0.3000247786275028,0.001372921543389545
0.3001955543807799,0.01132283647764597,0.3000515172837346,0.002937866012934961,0.3000363548884182,0.002052103912184261,0.3000208541811708,0.00113512530232908,0.3001955543807799,0.01137024027990238,0.3000272087086382,0.001513024151328652
0.3002153064033207,0.01246620607512452,0.3000556891179949,0.003179929341835306,0.3000404955022599,0.002291793429430464,0.3000220379232547,0.001203932987022041,0.3002153064033207,0.0125145786620745,0.3000292630785451,0.001631922598397821
0.3002359521234017,0.01366079203727546,0.3000600586240198,0.003433742661532291,0.3000445747569612,0.002528529245960373,0.3000232760796854,0.001275991430916634,0.3002359521234017,0.01370988856945746,0.3000313250086521,0.001751563206731052
0.3002548729420498,0.01475504001582155,0.3000640950947402,0.003668379607010148,0.3000476324883399,0.002706249512929834,0.3000246588549177,0.00135652109886061,0.3002548729420498,0.01480461099306257,0.3000332653780815,0.001864337231403324
0.3002733824966855,0.01582495507363301,0.3000680972377823,0.003901113989917538,0.3000505507610525,0.002875991227687752,0.3000263197103509,0.001453279637885483,0.3002733824966855,0.01587487058718356,0.3000352210082676,0.001978110503631501
0.3002929204882742,0.0169536841742132,0.3000723866923096,0.004150604931726994,0.3000535795213303,0.003052229551062861,0.3000284057780555,0.001574827866141082,0.3002929204882742,0.01700388031064157,0.3000373472471183,0.002101880416371269
0.3003144063124044,0.01819415340545913,0.3000771968436748,0.004430397148977388,0.3000569324636923,0.003247368471636329,0.3000311449240115,0.001734429888541506,0.3003144063124044,0.0182445976219073,0.3000397737395996,0.002243172137355226
0.3003390405956635,0.01961534853418669,0.3000828476436215,0.004759070613390284,0.3000609069229042,0.003478691135163671,0.3000349508561255,0.001956171457865849,0.3003390405956635,0.01966603237885564,0.3000426757244123,0.002412173113204692
0.300368224349186,0.02129753338603685,0.3000897470332063,0.005160310200300902,0.3000658115729713,0.003764138030009973,0.3000407272145972,0.002292660053092273,0.300368224349186,0.02134846858353914,0.30004629326351,0.002622845688863317
0.3004038981478017,0.02335161221893153,0.3000985133245159,0.005670003889918967,0.3000721014622227,0.004130152993092671,0.3000510831828987,0.002895758530693168,0.3004038981478017,0.02340283244570263,0.300051014034783,0.002897740682504329
0.3004491903637991,0.02595601097621826,0.3001102365545731,0.006351395903871481,0.3000805595125413,0.004622222228389577,0.3000717951195017,0.004101329403978328,0.3004491903637991,0.02600757943334261,0.3000575686469432,0.00327935446099216
0.3005097220210908,0.02943058298237508,0.3001271306855152,0.007332870554026811,0.3000927696718618,0.005332337136480762,0.3001109310928433,0.0063770294759371,0.3005097220210908,0.02948260971119004,0.3000675917031235,0.003862741334643231
0.3005970379484404,0.0344302639901974,0.3001547312886551,0.008935153794322167,0.3001126861958793,0.006490014824935058,0.3001892030395265,0.01091953365510269,0.3005970379484404,0.03448294840958419,0.3000860006279838,0.004933713227980721
0.3007401173670071,0.04259154994254332,0.300209932494935,0.01213529931206123,0.3001525192439143,0.008803063676075132,0.3003457469328929,0.01996906537927517,0.3007401173670071,0.04264530791947768,0.3001228184777044,0.007073685108677139
0.3010262762041406,0.05879781682984309,0.3003203349074948,0.01851795238473426,0.3002321853399844,0.01341995777944209,0.3006588347196257,0.0379270828292097,0.3010262762041406,0.05885370320856484,0.3001902872979859,0.01098838083495554
0.3015985938784075,0.09075027839240188,0.3005211620193537,0.03006824335807296,0.3003774711103829,0.02180821177754104,0.3012850102930912,0.07328575179872227,0.3015985938784075,0.09081034204556626,0.3003252249385487,0.0187914108811065
0.3027432292269413,0.1528553195112456,0.3009228162430717,0.05293816179838922,0.3006680426511801,0.03846334538835811,0.3025373614400224,0.1418271170969367,0.3027432292269413,0.1529234308440219,0.3005951002196743,0.03429257610863859
0.3046792212133655,0.2526516904323502,0.3017261246905076,0.09776961855486378,0.3012491857327744,0.07129356274881435,0.303008493696256,0.1668805762305919,0.3046792212133655,0.252732548959248,0.3011348507819256,0.06487970214195696
0.3052418512337829,0.2804667432897677,0.3033327415853795,0.1839103866741006,0.302411471895963,0.1350766001520528,0.3039507582087232,0.2158224864039584,0.3052418512337829,0.2805511280130739,0.3022143519064283,0.1244275537011207
0.3063671112746176,0.3345561380532932,0.3038462852522171,0.2104858786201041,0.3042670438296612,0.2319197001153939,0.3058352872336578,0.3092132649630597,0.3063671112746176,0.3346473177456345,0.3040211716463767,0.2194243106795477
0.3069297412950349,0.3608494925102524,0.3048733725858924,0.2622914148579168,0.3048083000249419,0.2590579559188295,0.3064567186514408,0.3387452249740336,0.3069297412950349,0.360943955966795,0.3045551997011224,0.2464237540462485
0.3080550013358696,0.4119797636436318,0.306927547253243,0.3607304847306469,0.3058908124155034,0.3118874949999093,0.3076995814870069,0.39600528153198,0.3080550013358696,0.4120805696589582,0.305623255810614,0.2990020092477519
0.3086176313562869,0.4368346580052051,0.3075183275652838,0.3878157933697152,0.3064320686107841,0.3375959624538769,0.3083210129047899,0.423757935325379,0.3086176313562869,0.4369385316848615,0.3061572838653598,0.3245974700757838
0.3097428913971216,0.4851676853299705,0.3086998881893654,0.4404122708128486,0.3075145810013455,0.3876421442421645,0.309563875740356,0.4775680512350994,0.3097428913971216,0.4852774862920025,0.3072253399748514,0.3744416200296724
0.310305521417539,0.5086628123960543,0.3092906685014062,0.4659438235713754,0.3080558371966263,0.4119961430790021,0.310185307158139,0.5036485950506505,0.310305521417539,0.5087754813925329,0.3077593680295971,0.3987060975719105
0.3114307814583737,0.5543516232906325,0.3104722291254878,0.5155230756043671,0.3091383495871877,0.4594056048066033,0.3114281699937051,0.5542166254957172,0.3114307814583737,0.5544698354727158,0.3088274241390887,0.4459583122716976
0.311993411478791,0.5765613714795971,0.3110630094375286,0.5395899951830625,0.3096796057824684,0.4824764941367359,0.3120496014114881,0.5787258029325302,0.311993411478791,0.5766822667721594,0.3093614521938345,0.468961016739032
0.3131186715196257,0.6197506229775074,0.3122445700616102,0.5863251016780452,0.3107621181730299,0.5273881498041016,0.3132924642470542,0.6262470821188196,0.3131186715196257,0.6198767051247147,0.3104295083033261,0.5137560754988956
0.313681301540043,0.640745311720159,0.312835350373651,0.6090114061103648,0.3113033743683106,0.5492435297247388,0.3139138956648372,0.649279567560901,0.313681301540043,0.6408739051888753,0.3109635363580718,0.5355626186840607
0.3148065615808777,0.6815717480703783,0.3140169109977325,0.6530655205994542,0.3123858867588721,0.5917889756570184,0.3151567585004033,0.6939376618493792,0.3148065615808777,0.6817051969786385,0.3120315924675634,0.5780282932328095
0.3153691916012951,0.7014178502374541,0.3146076913097733,0.674450408664899,0.3129271429541528,0.6124928851884347,0.3157781899181863,0.7155824259913515,0.3153691916012951,0.7015536505130984,0.3125656205223092,0.5987008755189928
