VT("/Vpeak") (frequency=775) X,VT("/Vpeak") (frequency=775) Y,VT("/Vin") (frequency=775) X,VT("/Vin") (frequency=775) Y
0,1.649832915536485,0,1.65
5.035981138750598e-08,1.6498329160145,5.035981138750598e-08,1.650019618041476
9.912490709335009e-08,1.649832916482454,9.912490709335009e-08,1.65003861484841
1.966550985050383e-07,1.6498329176659,1.966550985050383e-07,1.650076608454673
2.420977461471791e-07,1.649832921711469,2.420977461471791e-07,1.650094310968247
3.027074132409367e-07,1.649833289057896,3.027074132409367e-07,1.650117921897115
3.390529607089304e-07,1.649834369417577,3.390529607089304e-07,1.650132080560022
3.77819076535804e-07,1.649836950652026,3.77819076535804e-07,1.650147182167738
4.17104285617916e-07,1.649841445283327,4.17104285617916e-07,1.650162485986459
4.641700851822328e-07,1.649849129906086,4.641700851822328e-07,1.650180820778911
4.830650313471829e-07,1.649852605458009,4.830650313471829e-07,1.650188181427117
4.983847502739685e-07,1.649855486129104,4.983847502739685e-07,1.650194149321315
5.12585064478797e-07,1.649858173876718,5.12585064478797e-07,1.650199681143301
5.409856928884541e-07,1.649863559445447,5.409856928884541e-07,1.650210744784383
5.977869497077682e-07,1.649874338376204,5.977869497077682e-07,1.650232872054243
7.113894633463965e-07,1.649895901410125,7.113894633463965e-07,1.650277126538825
9.385944906236531e-07,1.649939027367174,9.385944906236531e-07,1.650365635240032
1.393004545178166e-06,1.650025262202816,1.393004545178166e-06,1.650542651191442
2.301824654287193e-06,1.65019765029757,2.301824654287193e-06,1.65089667425679
4.119464872505246e-06,1.650542089942888,4.119464872505246e-06,1.651604660770918
7.754745308941351e-06,1.651229617847719,7.754745308941351e-06,1.653020201225367
1.502530618181356e-05,1.652599287680299,1.502530618181356e-05,1.655847999746616
2.956642792755798e-05,1.655317286787606,2.956642792755798e-05,1.66147807408489
5.864867141904682e-05,1.660669552670741,5.864867141904682e-05,1.672537724309161
9.920021902541624e-05,1.667951542615729,9.920021902541624e-05,1.687158755339646
0.0001455965850134637,1.676033750676084,0.0001455965850134637,1.702084670846528
0.0001955965850134637,1.684458264091778,0.0001955965850134637,1.715187121241635
0.0002455965850134637,1.692599736017207,0.0002455965850134637,1.724444375457042
0.0002939780221872112,1.700220233714064,0.0002939780221872112,1.729225301568778
0.000340272516321165,1.70728533408238,0.000340272516321165,1.729703310588162
0.0003851408933866975,1.71393021019173,0.0003851408933866975,1.726316515719796
0.000396221941979961,1.7155410627193,0.000396221941979961,1.724911296146087
0.0004183840391664881,1.718728214247176,0.0004183840391664881,1.721451415979284
0.0004209659752418634,1.719096540352317,0.0004209659752418634,1.720993393017924
0.0004218631397722141,1.719224380665952,0.0004218631397722141,1.72083160948601
0.0004236574688329154,1.719479839613745,0.0004236574688329154,1.72050398993673
0.0004245546333632661,1.719607458452939,0.0004245546333632661,1.720338160172193
0.0004250032156284415,1.719671240247908,0.0004250032156284415,1.720254741672911
0.0004252275067610292,1.719703124244543,0.0004252275067610292,1.72021290669289
0.0004256760890262046,1.719766878447969,0.0004256760890262046,1.720128985521602
0.0004257882345924985,1.719781204292218,0.0004257882345924985,1.720107952929591
0.000425810320590591,1.719783385414258,0.000425810320590591,1.720103808297117
0.0004258330022169646,1.719785163955553,0.0004258330022169646,1.720099551045797
0.000425852674003409,1.719786324458333,0.000425852674003409,1.720095858037055
0.0004258920175762976,1.719787814025494,0.0004258920175762976,1.720088470090019
0.0004259417677528624,1.719788692593981,0.0004259417677528624,1.720079124304923
0.0004259889434585172,1.719789001002012,0.0004259889434585172,1.720070258346181
0.0004260401767735211,1.719789119449062,0.0004260401767735211,1.720060625632828
0.0004261026560725796,1.719789170569027,0.0004261026560725796,1.720048872586565
0.0004261903127547286,1.71978919676273,0.0004261903127547286,1.720032372467099
0.0004263305648383953,1.719789212422906,0.0004263305648383953,1.720005945475052
0.0004265792641195869,1.719789222607748,0.0004265792641195869,1.719959004047261
0.0004270558902906545,1.719789229028398,0.0004270558902906545,1.719868755253047
0.0004272942033761883,1.719789229004873,0.0004272942033761883,1.719823489691041
0.0004274133599189552,1.719789228588411,0.0004274133599189552,1.719800821645461
0.0004274729381903387,1.719789228329446,0.0004274729381903387,1.719789478809865
0.0004274955838779008,1.719789228324693,0.0004274955838779008,1.719785165859892
0.0004275135224260562,1.719789228324992,0.0004275135224260562,1.719781748798652
0.0004275309222222204,1.719789228325064,0.0004275309222222204,1.719778433853989
0.0004275596813599846,1.719789228325073,0.0004275596813599846,1.719772953671473
0.0004276171996355132,1.719789228325009,0.0004276171996355132,1.719761989201454
0.0004277322361865703,1.719789228324816,0.0004277322361865703,1.719740043844476
0.0004279623092886844,1.719789228324377,0.0004279623092886844,1.719696087486873
0.0004284224554929127,1.719789228323458,0.0004284224554929127,1.719607912390323
0.0004293427479013692,1.719789228321588,0.0004293427479013692,1.719430514223564
0.0004311833327182824,1.719789228317821,0.0004311833327182824,1.719071538501171
0.0004348645023521086,1.719789228310268,0.0004348645023521086,1.718336971012831
0.0004422268416197611,1.719789228295145,0.0004422268416197611,1.716802207219997
0.0004569515201550661,1.719789228264887,0.0004569515201550661,1.713477213055917
0.0004864008772256762,1.71978922820436,0.0004864008772256762,1.705867381915027
0.0005245620368628455,1.719789228125924,0.0005245620368628455,1.694326191816852
0.0005685590100120349,1.71978922803549,0.0005685590100120349,1.679153786363975
0.0006185590100120349,1.719789227932717,0.0006185590100120349,1.660334159047656
0.0006685590100120349,1.719789227829943,0.0006685590100120349,1.640904950143231
0.0007185590100120349,1.719789227727169,0.0007185590100120349,1.622012231427318
0.000768559010012035,1.719789227624394,0.000768559010012035,1.604770428701314
0.000818559010012035,1.71978922752162,0.000818559010012035,1.590196585097519
0.000868559010012035,1.719789227418846,0.000868559010012035,1.579150368701919
0.000918559010012035,1.719789227316072,0.000918559010012035,1.572283363267188
0.0009660464502144027,1.719789227218462,0.0009660464502144027,1.570002726520127
0.001011448052537882,1.719789227125139,0.001011448052537882,1.571804960458996
0.001055971400180283,1.719789227033623,0.001055971400180283,1.577270425924494
0.001100435306856841,1.719789226942228,0.001100435306856841,1.586127188458167
0.001145790412428761,1.719789226849001,0.001145790412428761,1.598230759351002
0.00119333220454425,1.71978922675128,0.00119333220454425,1.613605743569798
0.00124333220454425,1.719789226648506,0.00124333220454425,1.631853868144253
0.00129333220454425,1.719789226545732,0.00129333220454425,1.65117237956137
0.00134333220454425,1.719789226442958,0.00134333220454425,1.670421735763091
0.00139333220454425,1.719789226340183,0.00139333220454425,1.688466473953717
0.001443332204544249,1.719789226237409,0.001443332204544249,1.704242188204092
0.001493332204544249,1.719789226134635,0.001493332204544249,1.716818315620624
0.001505832204544249,1.719789226108942,0.001505832204544249,1.71937065346389
0.001507394704544249,1.71978922610573,0.001507394704544249,1.719671813521731
0.001507739427975314,1.719789226105022,0.001507739427975314,1.719737713885344
0.00150782560883308,1.719789226104845,0.00150782560883308,1.719754158279671
0.001507997970548612,1.71978922610449,0.001507997970548612,1.719787010212154
0.001508024502556275,1.719789226173389,0.001508024502556275,1.719792062814838
0.001508049734388945,1.719789226290111,0.001508049734388945,1.719796866738966
0.00150806706608191,1.719789226370276,0.00150806706608191,1.719800165933936
0.001508082886622575,1.719789226443443,0.001508082886622575,1.719803177037685
0.001508114527703904,1.719789226589751,0.001508114527703904,1.719809198002361
0.001508177809866564,1.719789226882257,0.001508177809866564,1.719821234959931
0.001508304374191882,1.719789227466805,0.001508304374191882,1.719845288983938
0.00150855750284252,1.719789228634018,0.00150855750284252,1.719893317435464
0.001509063760143795,1.719789230962975,0.001509063760143795,1.719989055697374
0.001509316888794432,1.719789232316622,0.001509316888794432,1.720036765362301
0.001509443453119751,1.719789245525102,0.001509443453119751,1.720060580296519
0.001509523208936809,1.71978942484011,0.001509523208936809,1.720075573855721
0.001509587567232439,1.719790219243788,0.001509587567232439,1.720087665078494
0.0015096647659742,1.719792992492995,0.0015096647659742,1.720102159600982
0.001509730490876601,1.719797322796914,0.001509730490876601,1.720114492034772
0.001509810001664208,1.71980498668959,0.001509810001664208,1.720129401613425
0.001509969023239422,1.719824672721132,0.001509969023239422,1.720159189230318
0.001510030234994191,1.719833125229638,0.001510030234994191,1.720170644086602
0.001510093327020562,1.719842003466689,0.001510093327020562,1.720182444282832
0.001510152267350434,1.719850350372981,0.001510152267350434,1.720193461996272
0.00151027014801018,1.719867074080498,0.00151027014801018,1.720215480075974
0.001510505909329671,1.71990054236925,0.001510505909329671,1.720259446821273
0.001510977431968654,1.719967483477132,0.001510977431968654,1.720347102452806
0.001511920477246619,1.720101320668226,0.001511920477246619,1.720521300664778
0.001513806567802549,1.720368764674544,0.001513806567802549,1.7208652320685
0.00151757874891441,1.720902692933423,0.00151757874891441,1.721535133919125
0.001525123111138132,1.721966695615235,0.001525123111138132,1.722802313393857
0.001540211835585575,1.724079398792118,0.001540211835585575,1.725040363928718
0.001545011554703437,1.724747189639868,0.001545011554703437,1.725667914281344
0.001554610992939161,1.726076667795029,0.001554610992939161,1.72679869867404
0.001559410712057024,1.726738368905989,0.001559410712057024,1.727301315046506
0.001560610641836489,1.726903478490384,0.001560610641836489,1.727420381819917
0.00156301050139542,1.727233320774475,0.00156301050139542,1.727650581812898
0.001564192337811398,1.727395570719328,0.001564192337811398,1.727760051253486
0.001564872994724931,1.727488960427752,0.001564872994724931,1.727821929667662
0.001564958076839122,1.72750033243532,0.001564958076839122,1.727829604372294
0.001565121903528982,1.72751980915637,0.001565121903528982,1.727844344484963
0.001565153231027103,1.727523196186193,0.001565153231027103,1.727847157497445
0.001565195418925034,1.727527627929492,0.001565195418925034,1.727850942843099
0.001565279794720894,1.727536168017885,0.001565279794720894,1.727858503677716
0.001565407545267772,1.727548542446279,0.001565407545267772,1.727869926267227
0.001565560215717201,1.727562786011446,0.001565560215717201,1.72788353750075
0.001565739789270362,1.727579115261535,0.001565739789270362,1.727899492171527
0.001565955656980479,1.72759843077987,0.001565955656980479,1.727918592649923
0.001566226173367891,1.727622386506346,0.001566226173367891,1.727942407020407
0.001566587551937093,1.727654126292523,0.001566587551937093,1.727974009239197
0.001567115233027126,1.727700036124192,0.001567115233027126,1.728019720735606
0.001568008711373969,1.727776617870998,0.001568008711373969,1.728095945509753
0.001569795668067655,1.727925372122062,0.001569795668067655,1.728243958779606
0.001573328859187215,1.728202090976448,0.001573328859187215,1.728519164973595
0.001580030595330328,1.728663245380565,0.001580030595330328,1.728977261702453
0.001588695273214751,1.72913523803963,0.001588695273214751,1.729444816827393
0.001597425169289403,1.729468648725637,0.001597425169289403,1.72977288260882
0.001605239194898426,1.72964639276272,0.001605239194898426,1.729944295892318
0.001608885598106198,1.729690955689446,0.001608885598106198,1.729984690935225
0.001609986572864251,1.729699754593996,0.001609986572864251,1.729991931638614
0.001612188522380359,1.729711427085719,0.001612188522380359,1.729999515521596
0.001613760902084416,1.729715552964197,0.001613760902084416,1.729999302299075
0.001615395936923397,1.729717358633895,0.001615395936923397,1.729994106657223
0.001615742279326078,1.729717478862693,0.001615742279326078,1.729992355248456
0.001616434964131438,1.729717607250175,0.001616434964131438,1.729988169871406
0.001617648671086415,1.72971769964042,0.001617648671086415,1.729978642139395
0.001619139102180892,1.729717739696587,0.001619139102180892,1.729963120522797
0.001621356879667142,1.729717761523957,0.001621356879667142,1.729932227933612
0.001625037405388141,1.729717774230624,0.001625037405388141,1.729860389651216
0.001626783419115759,1.7297177748536,0.001626783419115759,1.729817337741214
0.001628402638202974,1.729717774260183,0.001628402638202974,1.729772255742841
0.001629212247746582,1.729717773729467,0.001629212247746582,1.729747854803467
0.001629520069563955,1.729717773500986,0.001629520069563955,1.729738252079963
0.001630135713198703,1.729717773024345,0.001630135713198703,1.729718509190386
0.001630250055215374,1.729717773006329,0.001630250055215374,1.729714763497197
0.001630350840698315,1.729717773006153,0.001630350840698315,1.729711441406954
0.001630473060441297,1.729717773005914,0.001630473060441297,1.729707387043002
0.001630585002648492,1.729717773005687,0.001630585002648492,1.729703648842147
0.001630808887062882,1.729717773005229,0.001630808887062882,1.729696101393807
0.001631256655891662,1.729717773004309,0.001631256655891662,1.729680722342147
0.001632152193549222,1.729717773002466,0.001632152193549222,1.72964882787717
0.001633943268864341,1.729717772998778,0.001633943268864341,1.729580495661221
0.001637525419494581,1.729717772991399,0.001637525419494581,1.729425676881815
0.00164468972075506,1.729717772976638,0.00164468972075506,1.729043596452668
0.001659018323276017,1.729717772947116,0.001659018323276017,1.727991445265331
0.001686754608709057,1.729717772889968,0.001686754608709057,1.724882534336298
0.001721559045670382,1.729717772818255,0.001721559045670382,1.719061093385563
0.001760241214568174,1.729717772738552,0.001760241214568174,1.71027837149354
0.001802999372939661,1.729717772650451,0.001802999372939661,1.69810412809369
0.001849854751896596,1.729717772553908,0.001849854751896596,1.682399230294353
0.001899854751896596,1.729717772450885,0.001899854751896596,1.663810064512528
0.001949854751896596,1.729717772347862,0.001949854751896596,1.6444062837225
0.001999854751896595,1.729717772244839,0.001999854751896595,1.625332459771352
0.002049854751896596,1.729717772141817,0.002049854751896596,1.607713701324602
0.002099854751896596,1.729717772038794,0.002099854751896596,1.592589287021653
0.002149854751896596,1.729717771935771,0.002149854751896596,1.580851361491537
0.002199854751896596,1.729717771832748,0.002199854751896596,1.573192310370348
0.002247731141501329,1.729717771734101,0.002247731141501329,1.57010125485305
0.002293417957131592,1.729717771639965,0.002293417957131592,1.571182534090889
0.002338020838201505,1.729717771548063,0.002338020838201505,1.575987363161645
0.002382417859710865,1.729717771456585,0.002382417859710865,1.584224171120529
0.002427519044711635,1.729717771363656,0.002427519044711635,1.595724464122671
0.002474535246899941,1.729717771266781,0.002474535246899941,1.610478985935732
0.002524535246899941,1.729717771163758,0.002524535246899941,1.628412907596913
0.002574535246899941,1.729717771060735,0.002574535246899941,1.647620188223149
0.002624535246899941,1.729717770957713,0.002624535246899941,1.666967846932946
0.002674535246899941,1.72971777085469,0.002674535246899941,1.685314622355346
0.002724535246899941,1.729717770751667,0.002724535246899941,1.701578292274974
0.002774535246899941,1.729717770648644,0.002774535246899941,1.714799510731284
0.002824535246899941,1.729717770545621,0.002824535246899941,1.724198397009637
0.002873459630359495,1.729717770444815,0.002873459630359495,1.729161102798981
0.002884806726835493,1.729717770421435,0.002884806726835493,1.729678435702823
0.002885779707002891,1.72971777041943,0.002885779707002891,1.729711491501151
0.002886186334079351,1.729717770589081,0.002886186334079351,1.729724776036992
0.00288659491201303,1.729717770905414,0.00288659491201303,1.729737809483231
0.002886757746164847,1.729717771029385,0.002886757746164847,1.729742915858435
0.002886907242364054,1.729717771142141,0.002886907242364054,1.729747559820239
0.002887206234762468,1.729717771364593,0.002887206234762468,1.7297567209581
0.002887804219559297,1.729717771797223,0.002887804219559297,1.729774536023333
0.002889000189152955,1.729717772613315,0.002889000189152955,1.729808136790686
0.002891392128340271,1.72971777404863,0.002891392128340271,1.729867217004839
0.002896176006714902,1.729717776195582,0.002896176006714902,1.729952866027625
0.00289737197630856,1.729717777040669,0.00289737197630856,1.72996750070355
0.002899763915495875,1.729717895396157,0.002899763915495875,1.72998863316341
0.002904254670425498,1.729719603200794,0.002904254670425498,1.729998995989752
0.002907509767916115,1.729719992734228,0.002907509767916115,1.729982594019406
0.002909789606114687,1.729720071706537,0.002909789606114687,1.729959140147461
0.002913515642934332,1.729720120213941,0.002913515642934332,1.729899596415976
0.002918373845303851,1.729720140933209,0.002918373845303851,1.729782460047327
0.002919373032971027,1.729720140918791,0.002919373032971027,1.729752830290268
0.002919770499859572,1.729720140681492,0.002919770499859572,1.729740518937721
0.002920102084595737,1.729720140442189,0.002920102084595737,1.729730019710909
0.002920261789207711,1.729720140319172,0.002920261789207711,1.729724888690345
0.002920383631011673,1.729720140223465,0.002920383631011673,1.729720941708705
0.00292045969155069,1.72972014020391,0.00292045969155069,1.729718463552558
0.002920525127265014,1.729720140203798,0.002920525127265014,1.729716322816803
0.002920616737508021,1.72972014020362,0.002920616737508021,1.729713312181592
0.002920691304082121,1.72972014020347,0.002920691304082121,1.729710849950751
0.002920840437230323,1.729720140203166,0.002920840437230323,1.729705893961847
0.002921138703526725,1.729720140202554,0.002921138703526725,1.729695855884321
0.002921735236119531,1.729720140201327,0.002921735236119531,1.729675275404984
0.002922928301305141,1.729720140198871,0.002922928301305141,1.7296320977644
0.002925314431676362,1.729720140193956,0.002925314431676362,1.729537680975224
0.002930086692418803,1.729720140184126,0.002930086692418803,1.729316647881149
0.002939631213903687,1.729720140164461,0.002939631213903687,1.728746231751884
0.002958720256873453,1.729720140125131,0.002958720256873453,1.727096794176239
0.002989290175834606,1.729720140062144,0.002989290175834606,1.723076843333122
0.00302560938030943,1.729720139987311,0.00302560938030943,1.716209566948556
0.003065761305975266,1.72972013990458,0.003065761305975266,1.706224509876274
0.003109914221429109,1.729720139813605,0.003109914221429109,1.692788227536723
0.003158441323299481,1.729720139713617,0.003158441323299481,1.675774475882924
0.003208441323299481,1.729720139610594,0.003208441323299481,1.656756657134969
0.003258441323299481,1.729720139507571,0.003258441323299481,1.637340283094065
0.003308441323299481,1.729720139404548,0.003308441323299481,1.618670668446053
0.003358441323299481,1.729720139301525,0.003358441323299481,1.60184907874084
0.003408441323299481,1.729720139198502,0.003408441323299481,1.587867769982969
0.003458441323299481,1.729720139095478,0.003458441323299481,1.57755145837403
0.003508056014181919,1.729720138993249,0.003508056014181919,1.571537823773577
0.003555096980879873,1.729720138896323,0.003555096980879873,1.570042698688364
0.003600254761963244,1.729720138803277,0.003600254761963244,1.572538087814759
0.003644703910385622,1.729720138711691,0.003644703910385622,1.578638764810648
0.003689254880988692,1.729720138619896,0.003689254880988692,1.588094650865497
0.003734903991445155,1.729720138525838,0.003734903991445155,1.600789138239517
