;Version, 1, 0
;VT("/Vpeak") (pulse_width=0.001668101),;VT("/Vpeak") (pulse_width=0.001890993),;VT("/Vpeak") (pulse_width=0.002113884),;VT("/Vpeak") (pulse_width=0.002336776),;VT("/Vpeak") (pulse_width=0.002559667),;VT("/Vpeak") (pulse_width=0.002782559),;VT("/Vin") (pulse_width=0.001668101),;VT("/Vin") (pulse_width=0.001890993),;VT("/Vin") (pulse_width=0.002113884),;VT("/Vin") (pulse_width=0.002336776),;VT("/Vin") (pulse_width=0.002559667),;VT("/Vin") (pulse_width=0.002782559)
;X, Y,;X, Y,;X, Y,;X, Y,;X, Y,;X, Y,;X, Y,;X, Y,;X, Y,;X, Y,;X, Y,;X, Y
;Re, Re,;Re, Re,;Re, Re,;Re, Re,;Re, Re,;Re, Re,;Re, Re,;Re, Re,;Re, Re,;Re, Re,;Re, Re,;Re, Re
;time, V,;time, V,;time, V,;time, V,;time, V,;time, V,;time, V,;time, V,;time, V,;time, V,;time, V,;time, V
;s, V,;s, V,;s, V,;s, V,;s, V,;s, V,;s, V,;s, V,;s, V,;s, V,;s, V,;s, V
0,0,0,0,0,0,0,0,0,0,0,0,0,0,0,0,0,0,0,0,0,0,0,0
0.003,0,0.003,0,0.003,0,0.003,0,0.003,0,0.003,0,0.003,0,0.003,0,0.003,0,0.003,0,0.003,0,0.003,0
0.009000000000000001,0,0.009000000000000001,0,0.009000000000000001,0,0.009000000000000001,0,0.009000000000000001,0,0.009000000000000001,0,0.009000000000000001,0,0.009000000000000001,0,0.009000000000000001,0,0.009000000000000001,0,0.009000000000000001,0,0.009000000000000001,0
0.021,-5.241629525202475e-27,0.021,-5.241629525202475e-27,0.021,-5.241629525202475e-27,0.021,-5.241629525202475e-27,0.021,-5.241629525202475e-27,0.021,-5.241629525202475e-27,0.021,0,0.021,0,0.021,0,0.021,0,0.021,0,0.021,0
0.04500000000000001,-1.483632480068476e-26,0.04500000000000001,-1.483632480068476e-26,0.04500000000000001,-1.483632480068476e-26,0.04500000000000001,-1.483632480068476e-26,0.04500000000000001,-1.483632480068476e-26,0.04500000000000001,-1.483632480068476e-26,0.04500000000000001,0,0.04500000000000001,0,0.04500000000000001,0,0.04500000000000001,0,0.04500000000000001,0,0.04500000000000001,0
0.07500000000000001,-1.567975474233071e-26,0.07500000000000001,-1.567975474233071e-26,0.07500000000000001,-1.567975474233071e-26,0.07500000000000001,-1.567975474233071e-26,0.07500000000000001,-1.567975474233071e-26,0.07500000000000001,-1.567975474233071e-26,0.07500000000000001,0,0.07500000000000001,0,0.07500000000000001,0,0.07500000000000001,0,0.07500000000000001,0,0.07500000000000001,0
0.105,-1.947173365176587e-26,0.105,-1.947173365176587e-26,0.105,-1.947173365176587e-26,0.105,-1.947173365176587e-26,0.105,-1.947173365176587e-26,0.105,-1.947173365176587e-26,0.105,0,0.105,0,0.105,0,0.105,0,0.105,0,0.105,0
0.135,-2.44020620774775e-26,0.135,-2.44020620774775e-26,0.135,-2.44020620774775e-26,0.135,-2.44020620774775e-26,0.135,-2.44020620774775e-26,0.135,-2.44020620774775e-26,0.135,0,0.135,0,0.135,0,0.135,0,0.135,0,0.135,0
0.165,-2.970187809167226e-26,0.165,-2.970187809167226e-26,0.165,-2.970187809167226e-26,0.165,-2.970187809167226e-26,0.165,-2.970187809167226e-26,0.165,-2.970187809167226e-26,0.165,0,0.165,0,0.165,0,0.165,0,0.165,0,0.165,0
0.195,-3.511964929591598e-26,0.195,-3.511964929591598e-26,0.195,-3.511964929591598e-26,0.195,-3.511964929591598e-26,0.195,-3.511964929591598e-26,0.195,-3.511964929591598e-26,0.195,0,0.195,0,0.195,0,0.195,0,0.195,0,0.195,0
0.225,-4.057467945578926e-26,0.225,-4.057467945578926e-26,0.225,-4.057467945578926e-26,0.225,-4.057467945578926e-26,0.225,-4.057467945578926e-26,0.225,-4.057467945578926e-26,0.225,0,0.225,0,0.225,0,0.225,0,0.225,0,0.225,0
0.255,-4.604112364900694e-26,0.255,-4.604112364900694e-26,0.255,-4.604112364900694e-26,0.255,-4.604112364900694e-26,0.255,-4.604112364900694e-26,0.255,-4.604112364900694e-26,0.255,0,0.255,0,0.255,0,0.255,0,0.255,0,0.255,0
0.2775,-4.443275048673177e-26,0.2775,-4.443275048673177e-26,0.2775,-4.443275048673177e-26,0.2775,-4.443275048673177e-26,0.2775,-4.443275048673177e-26,0.2775,-4.443275048673177e-26,0.2775,0,0.2775,0,0.2775,0,0.2775,0,0.2775,0,0.2775,0
0.3,-4.65734719650502e-26,0.3,-4.65734719650502e-26,0.3,-4.65734719650502e-26,0.3,-4.65734719650502e-26,0.3,-4.65734719650502e-26,0.3,-4.65734719650502e-26,0.3,0,0.3,0,0.3,0,0.3,0,0.3,0,0.3,0
0.3000000000001183,6.083620990944282e-12,0.3000000000001183,6.083620990944282e-12,0.3000000000001183,6.083620990944282e-12,0.3000000000001183,6.083620990944282e-12,0.3000000000001183,6.083620990944282e-12,0.3000000000001183,6.083620990944282e-12,0.3000000000001183,1.951855344017872e-07,0.3000000000001183,1.951855344017872e-07,0.3000000000001183,1.951855344017872e-07,0.3000000000001183,1.951855344017872e-07,0.3000000000001183,1.951855344017872e-07,0.3000000000001183,1.951855344017872e-07
0.3000000000002069,1.053977952612781e-11,0.3000000000002069,1.053977952612781e-11,0.3000000000002069,1.053977952612781e-11,0.3000000000002069,1.053977952612781e-11,0.3000000000002069,1.053977952612781e-11,0.3000000000002069,1.053977952612781e-11,0.3000000000002069,3.413686000541816e-07,0.3000000000002069,3.413686000541816e-07,0.3000000000002069,3.413686000541816e-07,0.3000000000002069,3.413686000541816e-07,0.3000000000002069,3.413686000541816e-07,0.3000000000002069,3.413686000541816e-07
0.3000000000003841,1.925814265183496e-11,0.3000000000003841,1.925814265183496e-11,0.3000000000003841,1.925814265183496e-11,0.3000000000003841,1.925814265183496e-11,0.3000000000003841,1.925814265183496e-11,0.3000000000003841,1.925814265183496e-11,0.3000000000003841,6.337347313589703e-07,0.3000000000003841,6.337347313589703e-07,0.3000000000003841,6.337347313589703e-07,0.3000000000003841,6.337347313589703e-07,0.3000000000003841,6.337347313589703e-07,0.3000000000003841,6.337347313589703e-07
0.3000000000007385,3.618159426690001e-11,0.3000000000007385,3.618159426690001e-11,0.3000000000007385,3.618159426690001e-11,0.3000000000007385,3.618159426690001e-11,0.3000000000007385,3.618159426690001e-11,0.3000000000007385,3.618159426690001e-11,0.3000000000007385,1.218466993968548e-06,0.3000000000007385,1.218466993968548e-06,0.3000000000007385,1.218466993968548e-06,0.3000000000007385,1.218466993968548e-06,0.3000000000007385,1.218466993968548e-06,0.3000000000007385,1.218466993968548e-06
0.3000000000014472,6.90518556156801e-11,0.3000000000014472,6.90518556156801e-11,0.3000000000014472,6.90518556156801e-11,0.3000000000014472,6.90518556156801e-11,0.3000000000014472,6.90518556156801e-11,0.3000000000014472,6.90518556156801e-11,0.3000000000014472,2.387931519187702e-06,0.3000000000014472,2.387931519187702e-06,0.3000000000014472,2.387931519187702e-06,0.3000000000014472,2.387931519187702e-06,0.3000000000014472,2.387931519187702e-06,0.3000000000014472,2.387931519187702e-06
0.3000000000028648,1.339118456938086e-10,0.3000000000028648,1.339118456938086e-10,0.3000000000028648,1.339118456938086e-10,0.3000000000028648,1.339118456938086e-10,0.3000000000028648,1.339118456938086e-10,0.3000000000028648,1.339118456938086e-10,0.3000000000028648,4.726860569626012e-06,0.3000000000028648,4.726860569626012e-06,0.3000000000028648,4.726860569626012e-06,0.3000000000028648,4.726860569626012e-06,0.3000000000028648,4.726860569626012e-06,0.3000000000028648,4.726860569626012e-06
0.3000000000056998,2.659232958115222e-10,0.3000000000056998,2.659232958115222e-10,0.3000000000056998,2.659232958115222e-10,0.3000000000056998,2.659232958115222e-10,0.3000000000056998,2.659232958115222e-10,0.3000000000056998,2.659232958115222e-10,0.3000000000056998,9.40471867050263e-06,0.3000000000056998,9.40471867050263e-06,0.3000000000056998,9.40471867050263e-06,0.3000000000056998,9.40471867050263e-06,0.3000000000056998,9.40471867050263e-06,0.3000000000056998,9.40471867050263e-06
0.3000000000113699,5.521921322532833e-10,0.3000000000113699,5.521921322532833e-10,0.3000000000113699,5.521921322532833e-10,0.3000000000113699,5.521921322532833e-10,0.3000000000113699,5.521921322532833e-10,0.3000000000113699,5.521921322532833e-10,0.3000000000113699,1.876043487225587e-05,0.3000000000113699,1.876043487225587e-05,0.3000000000113699,1.876043487225587e-05,0.3000000000113699,1.876043487225587e-05,0.3000000000113699,1.876043487225587e-05,0.3000000000113699,1.876043487225587e-05
0.3000000000227102,1.326356922667624e-09,0.3000000000227102,1.326356922667624e-09,0.3000000000227102,1.326356922667624e-09,0.3000000000227102,1.326356922667624e-09,0.3000000000227102,1.326356922667624e-09,0.3000000000227102,1.326356922667624e-09,0.3000000000227102,3.747186727576234e-05,0.3000000000227102,3.747186727576234e-05,0.3000000000227102,3.747186727576234e-05,0.3000000000227102,3.747186727576234e-05,0.3000000000227102,3.747186727576234e-05,0.3000000000227102,3.747186727576234e-05
0.3000000000453907,5.352351763131913e-09,0.3000000000453907,5.352351763131913e-09,0.3000000000453907,5.352351763131913e-09,0.3000000000453907,5.352351763131913e-09,0.3000000000453907,5.352351763131913e-09,0.3000000000453907,5.352351763131913e-09,0.3000000000453907,7.489473208277529e-05,0.3000000000453907,7.489473208277529e-05,0.3000000000453907,7.489473208277529e-05,0.3000000000453907,7.489473208277529e-05,0.3000000000453907,7.489473208277529e-05,0.3000000000453907,7.489473208277529e-05
0.3000000000907518,3.05241446368164e-08,0.3000000000907518,3.05241446368164e-08,0.3000000000907518,3.05241446368164e-08,0.3000000000907518,3.05241446368164e-08,0.3000000000907518,3.05241446368164e-08,0.3000000000907518,3.05241446368164e-08,0.3000000000907518,0.0001497404616968012,0.3000000000907518,0.0001497404616968012,0.3000000000907518,0.0001497404616968012,0.3000000000907518,0.0001497404616968012,0.3000000000907518,0.0001497404616968012,0.3000000000907518,0.0001497404616968012
0.3000000001814739,1.742135993952998e-07,0.3000000001814739,1.742135993952998e-07,0.3000000001814739,1.742135993952998e-07,0.3000000001814739,1.742135993952998e-07,0.3000000001814739,1.742135993952998e-07,0.3000000001814739,1.742135993952998e-07,0.3000000001814739,0.000299431920924853,0.3000000001814739,0.000299431920924853,0.3000000001814739,0.000299431920924853,0.3000000001814739,0.000299431920924853,0.3000000001814739,0.000299431920924853,0.3000000001814739,0.000299431920924853
0.3000000001892648,1.924473535957834e-07,0.3000000001892648,1.924473535957834e-07,0.3000000001892648,1.924473535957834e-07,0.3000000001892648,1.924473535957834e-07,0.3000000001892648,1.924473535957834e-07,0.3000000001892648,1.924473535957834e-07,0.3000000001892648,0.0003122869629557101,0.3000000001892648,0.0003122869629557101,0.3000000001892648,0.0003122869629557101,0.3000000001892648,0.0003122869629557101,0.3000000001892648,0.0003122869629557101,0.3000000001892648,0.0003122869629557101
0.3000000001978825,2.138599582302866e-07,0.3000000001978825,2.138599582302866e-07,0.3000000001978825,2.138599582302866e-07,0.3000000001978825,2.138599582302866e-07,0.3000000001978825,2.138599582302866e-07,0.3000000001978825,2.138599582302866e-07,0.3000000001978825,0.000326506105485791,0.3000000001978825,0.000326506105485791,0.3000000001978825,0.000326506105485791,0.3000000001978825,0.000326506105485791,0.3000000001978825,0.000326506105485791,0.3000000001978825,0.000326506105485791
0.3000000002006429,2.20789096763246e-07,0.3000000002006429,2.20789096763246e-07,0.3000000002006429,2.20789096763246e-07,0.3000000002006429,2.20789096763246e-07,0.3000000002006429,2.20789096763246e-07,0.3000000002006429,2.20789096763246e-07,0.3000000002006429,0.0003310608620576971,0.3000000002006429,0.0003310608620576971,0.3000000002006429,0.0003310608620576971,0.3000000002006429,0.0003310608620576971,0.3000000002006429,0.0003310608620576971,0.3000000002006429,0.0003310608620576971
0.3000000002026604,2.252696273855002e-07,0.3000000002026604,2.252696273855002e-07,0.3000000002026604,2.252696273855002e-07,0.3000000002026604,2.252696273855002e-07,0.3000000002026604,2.252696273855002e-07,0.3000000002026604,2.252696273855002e-07,0.3000000002026604,0.0003343896409768732,0.3000000002026604,0.0003343896409768732,0.3000000002026604,0.0003343896409768732,0.3000000002026604,0.0003343896409768732,0.3000000002026604,0.0003343896409768732,0.3000000002026604,0.0003343896409768732
0.3000000002043759,2.290877245388699e-07,0.3000000002043759,2.290877245388699e-07,0.3000000002043759,2.290877245388699e-07,0.3000000002043759,2.290877245388699e-07,0.3000000002043759,2.290877245388699e-07,0.3000000002043759,2.290877245388699e-07,0.3000000002043759,0.0003372203349893965,0.3000000002043759,0.0003372203349893965,0.3000000002043759,0.0003372203349893965,0.3000000002043759,0.0003372203349893965,0.3000000002043759,0.0003372203349893965,0.3000000002043759,0.0003372203349893965
0.3000000002057168,2.320737769706682e-07,0.3000000002057168,2.320737769706682e-07,0.3000000002057168,2.320737769706682e-07,0.3000000002057168,2.320737769706682e-07,0.3000000002057168,2.320737769706682e-07,0.3000000002057168,2.320737769706682e-07,0.3000000002057168,0.0003394326819616822,0.3000000002057168,0.0003394326819616822,0.3000000002057168,0.0003394326819616822,0.3000000002057168,0.0003394326819616822,0.3000000002057168,0.0003394326819616822,0.3000000002057168,0.0003394326819616822
0.3000000002083984,2.380469316473088e-07,0.3000000002083984,2.380469316473088e-07,0.3000000002083984,2.380469316473088e-07,0.3000000002083984,2.380469316473088e-07,0.3000000002083984,2.380469316473088e-07,0.3000000002083984,2.380469316473088e-07,0.3000000002083984,0.0003438573759062535,0.3000000002083984,0.0003438573759062535,0.3000000002083984,0.0003438573759062535,0.3000000002083984,0.0003438573759062535,0.3000000002083984,0.0003438573759062535,0.3000000002083984,0.0003438573759062535
0.3000000002137617,2.499940807943412e-07,0.3000000002137617,2.499940807943412e-07,0.3000000002137617,2.499940807943412e-07,0.3000000002137617,2.499940807943412e-07,0.3000000002137617,2.499940807943412e-07,0.3000000002137617,2.499940807943412e-07,0.3000000002137617,0.0003527067637953962,0.3000000002137617,0.0003527067637953962,0.3000000002137617,0.0003527067637953962,0.3000000002137617,0.0003527067637953962,0.3000000002137617,0.0003527067637953962,0.3000000002137617,0.0003527067637953962
0.3000000002244882,2.738890506966649e-07,0.3000000002244882,2.738890506966649e-07,0.3000000002244882,2.738890506966649e-07,0.3000000002244882,2.738890506966649e-07,0.3000000002244882,2.738890506966649e-07,0.3000000002244882,2.738890506966649e-07,0.3000000002244882,0.0003704055395736816,0.3000000002244882,0.0003704055395736816,0.3000000002244882,0.0003704055395736816,0.3000000002244882,0.0003704055395736816,0.3000000002244882,0.0003704055395736816,0.3000000002244882,0.0003704055395736816
0.3000000002459413,3.216795268809421e-07,0.3000000002459413,3.216795268809421e-07,0.3000000002459413,3.216795268809421e-07,0.3000000002459413,3.216795268809421e-07,0.3000000002459413,3.216795268809421e-07,0.3000000002459413,3.216795268809421e-07,0.3000000002459413,0.0004058030911302524,0.3000000002459413,0.0004058030911302524,0.3000000002459413,0.0004058030911302524,0.3000000002459413,0.0004058030911302524,0.3000000002459413,0.0004058030911302524,0.3000000002459413,0.0004058030911302524
0.3000000002888474,4.172609047252741e-07,0.3000000002888474,4.172609047252741e-07,0.3000000002888474,4.172609047252741e-07,0.3000000002888474,4.172609047252741e-07,0.3000000002888474,4.172609047252741e-07,0.3000000002888474,4.172609047252741e-07,0.3000000002888474,0.0004765981942433938,0.3000000002888474,0.0004765981942433938,0.3000000002888474,0.0004765981942433938,0.3000000002888474,0.0004765981942433938,0.3000000002888474,0.0004765981942433938,0.3000000002888474,0.0004765981942433938
0.3000000003746596,6.0842398628283e-07,0.3000000003746596,6.0842398628283e-07,0.3000000003746596,6.0842398628283e-07,0.3000000003746596,6.0842398628283e-07,0.3000000003746596,6.0842398628283e-07,0.3000000003746596,6.0842398628283e-07,0.3000000003746596,0.0006181884004696769,0.3000000003746596,0.0006181884004696769,0.3000000003746596,0.0006181884004696769,0.3000000003746596,0.0006181884004696769,0.3000000003746596,0.0006181884004696769,0.3000000003746596,0.0006181884004696769
0.3000000005462841,9.907503520461051e-07,0.3000000005462841,9.907503520461051e-07,0.3000000005462841,9.907503520461051e-07,0.3000000005462841,9.907503520461051e-07,0.3000000005462841,9.907503520461051e-07,0.3000000005462841,9.907503520461051e-07,0.3000000005462841,0.000901368812922243,0.3000000005462841,0.000901368812922243,0.3000000005462841,0.000901368812922243,0.3000000005462841,0.000901368812922243,0.3000000005462841,0.000901368812922243,0.3000000005462841,0.000901368812922243
0.3000000008895331,1.755403013503406e-06,0.3000000008895331,1.755403013503406e-06,0.3000000008895331,1.755403013503406e-06,0.3000000008895331,1.755403013503406e-06,0.3000000008895331,1.755403013503406e-06,0.3000000008895331,1.755403013503406e-06,0.3000000008895331,0.001467729637827375,0.3000000008895331,0.001467729637827375,0.3000000008895331,0.001467729637827375,0.3000000008895331,0.001467729637827375,0.3000000008895331,0.001467729637827375,0.3000000008895331,0.001467729637827375
0.3000000015760311,3.284707351612112e-06,0.3000000015760311,3.284707351612112e-06,0.3000000015760311,3.284707351612112e-06,0.3000000015760311,3.284707351612112e-06,0.3000000015760311,3.284707351612112e-06,0.3000000015760311,3.284707351612112e-06,0.3000000015760311,0.00260045128763764,0.3000000015760311,0.00260045128763764,0.3000000015760311,0.00260045128763764,0.3000000015760311,0.00260045128763764,0.3000000015760311,0.00260045128763764,0.3000000015760311,0.00260045128763764
0.300000002949027,6.343311524988422e-06,0.300000002949027,6.343311524988422e-06,0.300000002949027,6.343311524988422e-06,0.300000002949027,6.343311524988422e-06,0.300000002949027,6.343311524988422e-06,0.300000002949027,6.343311524988422e-06,0.300000002949027,0.004865894587258167,0.300000002949027,0.004865894587258167,0.300000002949027,0.004865894587258167,0.300000002949027,0.004865894587258167,0.300000002949027,0.004865894587258167,0.300000002949027,0.004865894587258167
0.3000000056950189,1.246050140952862e-05,0.3000000056950189,1.246050140952862e-05,0.3000000056950189,1.246050140952862e-05,0.3000000056950189,1.246050140952862e-05,0.3000000056950189,1.246050140952862e-05,0.3000000056950189,1.246050140952862e-05,0.3000000056950189,0.009396781186499226,0.3000000056950189,0.009396781186499226,0.3000000056950189,0.009396781186499226,0.3000000056950189,0.009396781186499226,0.3000000056950189,0.009396781186499226,0.3000000056950189,0.009396781186499226
0.3000000111870026,2.469480696945054e-05,0.3000000111870026,2.469480696945054e-05,0.3000000111870026,2.469480696945054e-05,0.3000000111870026,2.469480696945054e-05,0.3000000111870026,2.469480696945054e-05,0.3000000111870026,2.469480696945054e-05,0.3000000111870026,0.01845855438498134,0.3000000111870026,0.01845855438498134,0.3000000111870026,0.01845855438498134,0.3000000111870026,0.01845855438498134,0.3000000111870026,0.01845855438498134,0.3000000111870026,0.01845855438498134
0.3000000221709702,4.916312096737355e-05,0.3000000221709702,4.916312096737355e-05,0.3000000221709702,4.916312096737355e-05,0.3000000221709702,4.916312096737355e-05,0.3000000221709702,4.916312096737355e-05,0.3000000221709702,4.916312096737355e-05,0.3000000221709702,0.03658210078194557,0.3000000221709702,0.03658210078194557,0.3000000221709702,0.03658210078194557,0.3000000221709702,0.03658210078194557,0.3000000221709702,0.03658210078194557,0.3000000221709702,0.03658210078194557
0.3000000441389052,9.809856027099152e-05,0.3000000441389052,9.809856027099152e-05,0.3000000441389052,9.809856027099152e-05,0.3000000441389052,9.809856027099152e-05,0.3000000441389052,9.809856027099152e-05,0.3000000441389052,9.809856027099152e-05,0.3000000441389052,0.07282919357587403,0.3000000441389052,0.07282919357587403,0.3000000441389052,0.07282919357587403,0.3000000441389052,0.07282919357587403,0.3000000441389052,0.07282919357587403,0.3000000441389052,0.07282919357587403
