/Vin (frequency=10055.56) X,/Vin (frequency=10055.56) Y,/Vin (frequency=11000) X,/Vin (frequency=11000) Y,/Vin (frequency=9111.111) X,/Vin (frequency=9111.111) Y,/Vin (frequency=8166.667) X,/Vin (frequency=8166.667) Y,/Vin (frequency=7222.222) X,/Vin (frequency=7222.222) Y,/Vin (frequency=6277.778) X,/Vin (frequency=6277.778) Y,/Vin (frequency=5333.333) X,/Vin (frequency=5333.333) Y,/Vin (frequency=4388.889) X,/Vin (frequency=4388.889) Y,/Vin (frequency=3444.444) X,/Vin (frequency=3444.444) Y,/Vin (frequency=2500) X,/Vin (frequency=2500) Y
0,1.65,0,1.65,0,1.65,0,1.65,0,1.65,0,1.65,0,1.65,0,1.65,0,1.65,0,1.65
2.554328917427625e-10,1.650001291078785,2.554328917427625e-10,1.650001412340328,2.554328917427625e-10,1.650001169817241,2.554328917427625e-10,1.650001048555698,2.554328917427625e-10,1.650000927294155,2.554328917427625e-10,1.650000806032611,2.554328917427625e-10,1.650000684771068,2.554328917427625e-10,1.650000563509525,2.554328917427625e-10,1.650000442247981,2.554328917427625e-10,1.650000320986438
4.42100055674813e-10,1.650002234583019,4.42100055674813e-10,1.650002444460982,4.42100055674813e-10,1.650002024705056,4.42100055674813e-10,1.650001814827093,4.42100055674813e-10,1.650001604949129,4.42100055674813e-10,1.650001395071166,4.42100055674813e-10,1.650001185193203,4.42100055674813e-10,1.65000097531524,4.42100055674813e-10,1.650000765437277,4.42100055674813e-10,1.650000555559314
8.15434383538914e-10,1.650004121591482,8.15434383538914e-10,1.650004508702284,8.15434383538914e-10,1.65000373448068,8.15434383538914e-10,1.650003347369878,8.15434383538914e-10,1.650002960259076,8.15434383538914e-10,1.650002573148274,8.15434383538914e-10,1.650002186037472,8.15434383538914e-10,1.65000179892667,8.15434383538914e-10,1.650001411815867,8.15434383538914e-10,1.650001024705065
1.562103039267116e-09,1.650007895608388,1.562103039267116e-09,1.650008637184863,1.562103039267116e-09,1.650007154031911,1.562103039267116e-09,1.650006412455435,1.562103039267116e-09,1.650005670878957,1.562103039267116e-09,1.650004929302479,1.562103039267116e-09,1.650004187726001,1.562103039267116e-09,1.650003446149522,1.562103039267116e-09,1.650002704573043,1.562103039267116e-09,1.650001962996563
2.838007746895398e-09,1.650014344634789,2.838007746895398e-09,1.650015691920913,2.838007746895398e-09,1.650012997348661,2.838007746895398e-09,1.65001165006253,2.838007746895398e-09,1.650010302776395,2.838007746895398e-09,1.650008955490257,2.838007746895398e-09,1.650007608204116,2.838007746895398e-09,1.650006260917974,2.838007746896043e-09,1.65000491363183,2.838007746896043e-09,1.650003566345684
5.389817162151963e-09,1.650027242687123,5.389817162151963e-09,1.65002980139243,5.389817162151963e-09,1.650024683981788,5.389817162151963e-09,1.650022125276428,5.389817162151963e-09,1.650019566571045,5.389817162151963e-09,1.650017007865642,5.389817162151963e-09,1.650014449160222,5.389817162151963e-09,1.650011890454787,5.389817162153896e-09,1.650009331749339,5.389817162153896e-09,1.650006773043883
1.049343599266509e-08,1.650053038788738,1.049343599266509e-08,1.650058020331596,1.049343599266509e-08,1.650048057245675,1.049343599266509e-08,1.650043075702425,1.049343599266509e-08,1.650038094159008,1.049343599266509e-08,1.650033112615444,1.049343599266509e-08,1.650028131071751,1.049343599266509e-08,1.650023149527949,1.04934359926696e-08,1.650018167984057,1.04934359926696e-08,1.650013186440095
1.620482821141612e-08,1.650081906856698,1.620482821141612e-08,1.650089599762812,1.620482821141612e-08,1.650074213949827,1.620482821141612e-08,1.650066521042269,1.620482821141612e-08,1.650058828134096,1.620482821141612e-08,1.650051135225379,1.620482821141612e-08,1.65004344231619,1.620482821141612e-08,1.650035749406598,1.620482821142516e-08,1.650028056496676,1.620482821142516e-08,1.650020363586495
2.262203232247169e-08,1.650114342416511,2.262203232247169e-08,1.650125081751123,2.262203232247169e-08,1.650103603079839,2.262203232247169e-08,1.650092863741299,2.262203232247169e-08,1.650082124401087,2.262203232247169e-08,1.650071385059394,2.262203232247169e-08,1.650060645716415,2.262203232247169e-08,1.650049906372342,2.262203232248169e-08,1.650039167027371,2.262203232248169e-08,1.650028427681694
2.989385144228261e-08,1.650151097576955,2.989385144228261e-08,1.650165289042756,2.989385144228261e-08,1.650136906106398,2.989385144228261e-08,1.650122714631534,2.989385144228261e-08,1.650108523152807,2.989385144228261e-08,1.650094331670666,2.989385144228261e-08,1.650080140185556,2.989385144228261e-08,1.650065948697925,2.98938514422934e-08,1.650051757208218,2.98938514422934e-08,1.650037565716882
3.793948506358156e-08,1.650191763916912,3.793948506358156e-08,1.650209774853026,3.793948506358156e-08,1.650173752971079,3.793948506358156e-08,1.650155742016439,3.793948506358156e-08,1.650137731053904,3.793948506358156e-08,1.650119720084389,3.793948506358156e-08,1.650101709108805,3.793948506358156e-08,1.650083698128066,3.793948506359345e-08,1.650065687143085,3.793948506359345e-08,1.650047676154774
4.683030533745589e-08,1.650236702159351,4.683030533745589e-08,1.650258933779575,4.683030533745589e-08,1.650214470520848,4.683030533745589e-08,1.650192238865782,4.683030533745589e-08,1.65017000719587,4.683030533745589e-08,1.650147775512828,4.683030533745589e-08,1.650125543818375,4.683030533745589e-08,1.650103312114226,4.683030533746807e-08,1.650081080402099,4.683030533746807e-08,1.65005884868371
5.662915091613642e-08,1.650286229884102,5.662915091613642e-08,1.650313113222499,5.662915091613642e-08,1.650259346513383,5.662915091613642e-08,1.650232463113378,5.662915091613642e-08,1.650205579687121,5.662915091613642e-08,1.650178696237649,5.662915091613642e-08,1.650151812767997,5.662915091613642e-08,1.650124929281202,5.662915091614518e-08,1.650098045780299,5.662915091614518e-08,1.650071162268325
6.739118718960792e-08,1.650340625872633,6.739118718960792e-08,1.650372618136485,6.739118718960792e-08,1.650308633554306,6.739118718960792e-08,1.65027664118662,6.739118718960792e-08,1.650244648774693,6.739118718960792e-08,1.65021265632364,6.739118718960792e-08,1.650180663838577,6.739118718960792e-08,1.650148671324622,6.739118718961572e-08,1.65011667878689,6.739118718961572e-08,1.650084686230499
7.918994147780802e-08,1.650400261696707,7.918994147780802e-08,1.650437854977457,7.918994147780802e-08,1.650362668327568,7.918994147780802e-08,1.650325074878341,7.918994147780802e-08,1.65028748135733,7.918994147780802e-08,1.650249887772834,7.918994147780802e-08,1.650212294133157,7.918994147780802e-08,1.650174700446599,7.918994147781869e-08,1.650137106721463,7.918994147781869e-08,1.65009951296605
9.210844508514843e-08,1.650465556939621,9.210844508514843e-08,1.650509282716675,9.210844508514843e-08,1.650421831023481,9.210844508514843e-08,1.650378104981318,9.210844508514843e-08,1.650334378826195,9.210844508514843e-08,1.650290652571175,9.210844508514843e-08,1.650246926229322,9.210844508514843e-08,1.6502031998137,9.210844508515769e-08,1.650159473337371,9.210844508515769e-08,1.650115746813398
1.062422274558599e-07,1.650536994320948,1.062422274558599e-07,1.650587429384077,1.062422274558599e-07,1.650486559044378,1.062422274558599e-07,1.650436123574415,1.062422274558599e-07,1.650385687931105,1.062422274558599e-07,1.650335252134494,1.062422274558599e-07,1.65028481620463,1.062422274558599e-07,1.65023438016156,1.062422274558718e-07,1.65018394402533,1.062422274558718e-07,1.650133507815987
1.217018714692215e-07,1.650615132599733,1.217018714692215e-07,1.650672906180715,1.217018714692215e-07,1.650557358697921,1.217018714692215e-07,1.65049958450541,1.217018714692215e-07,1.650441810052335,1.217018714692215e-07,1.650384035368828,1.217018714692215e-07,1.650326260485022,1.217018714692215e-07,1.650268485431051,1.217018714692356e-07,1.650210710237048,1.217018714692356e-07,1.650152934933145
1.386135722689453e-07,1.650700609382381,1.386135722689453e-07,1.650766410546784,1.386135722689453e-07,1.650634807743954,1.386135722689453e-07,1.650569005676024,1.386135722689453e-07,1.650503203223113,1.386135722689453e-07,1.65043740042974,1.386135722689453e-07,1.650371597340427,1.386135722689453e-07,1.650305793999696,1.386135722689618e-07,1.650239990452068,1.386135722689618e-07,1.650174186742066
1.57120881703795e-07,1.65079414991714,1.57120881703795e-07,1.65086873577724,1.57120881703795e-07,1.650719563366669,1.57120881703795e-07,1.650644976190665,1.57120881703795e-07,1.65057038845397,1.57120881703795e-07,1.650495800221424,1.57120881703795e-07,1.650421211557868,1.57120881703795e-07,1.650346622528144,1.571208817038167e-07,1.650272033197094,1.571208817038167e-07,1.65019744362956
1.773868680622844e-07,1.65089657797945,1.773868680622844e-07,1.65098078292289,1.773868680622844e-07,1.650812372042566,1.773868680622844e-07,1.650728165205542,1.773868680622844e-07,1.650643957561681,1.773868680622844e-07,1.65055974920429,1.773868680622844e-07,1.650475540226674,1.773868680622844e-07,1.65039133072214,1.77386868062306e-07,1.650307120783996,1.77386868062306e-07,1.65022291050555
1.995969744582714e-07,1.651008830277147,1.995969744582714e-07,1.651103576539475,1.995969744582714e-07,1.650914082599552,1.995969744582714e-07,1.650819333639608,1.995969744582714e-07,1.650724583530239,1.995969744582714e-07,1.650629832404365,1.995969744582714e-07,1.650535080394913,1.995969744582714e-07,1.650440327634807,1.995969744582858e-07,1.650345574256975,1.995969744582858e-07,1.650250820394343
2.239630510970115e-07,1.651131976772805,2.239630510970115e-07,1.651238286906175,2.239630510970115e-07,1.651025664640021,2.239630510970115e-07,1.650919350695602,2.239630510970115e-07,1.650813035127331,2.239630510970115e-07,1.650706718122994,2.239630510970115e-07,1.650600399870378,2.239630510970115e-07,1.650494080557274,2.239630510970221e-07,1.650387760371474,2.239630510970221e-07,1.650281439500771
2.507288501087413e-07,1.65126724837537,2.507288501087413e-07,1.651386260300557,2.507288501087413e-07,1.65114823364486,2.507288501087413e-07,1.65102921637249,2.507288501087413e-07,1.650910196821733,2.507288501087413e-07,1.650791175256062,2.507288501087413e-07,1.650672151938957,2.507288501087413e-07,1.650553127133901,2.507288501087565e-07,1.650434101104381,2.507288501087565e-07,1.650315074113886
2.801773644238095e-07,1.651416073918749,2.801773644238095e-07,1.651549059425514,2.801773644238095e-07,1.651283084497591,2.801773644238095e-07,1.651150091529656,2.801773644238095e-07,1.651017095382571,2.801773644238095e-07,1.650884096423973,2.801773644238095e-07,1.650751095021504,2.801773644238095e-07,1.650618091542815,2.801773644238166e-07,1.650485086355561,2.801773644238166e-07,1.650352079827403
3.126403379032845e-07,1.651580128065467,3.126403379032845e-07,1.651728515776752,3.126403379032845e-07,1.651431734915485,3.126403379032845e-07,1.651283336837568,3.126403379032845e-07,1.65113493434249,3.126403379032845e-07,1.650986527941045,3.126403379032845e-07,1.650838118144035,3.126403379032845e-07,1.650689705462279,3.126403379032901e-07,1.650541290406602,3.126403379032901e-07,1.65039287348784
3.485101732485073e-07,1.651761391256593,3.485101732485073e-07,1.651926795172266,3.485101732485073e-07,1.651595979807379,3.485101732485073e-07,1.651430561532095,3.485101732485073e-07,1.651265137138242,3.485101732485073e-07,1.651099707333347,3.485101732485073e-07,1.650934272824959,3.485101732485073e-07,1.650768834320649,3.485101732485141e-07,1.650603392528003,3.485101732485141e-07,1.650437948154623
3.882543978051134e-07,1.651962222481369,3.882543978051134e-07,1.652146477282138,3.882543978051134e-07,1.651777957264783,3.882543978051134e-07,1.65159368261049,3.882543978051134e-07,1.651409399496652,3.882543978051134e-07,1.651225108901477,3.882543978051134e-07,1.651040811803211,3.882543978051134e-07,1.650856509180134,3.882543978051035e-07,1.650672202010558,3.882543978051035e-07,1.650487891272817
4.324328473786639e-07,1.65218544562138,4.324328473786639e-07,1.652390649972742,4.324328473786639e-07,1.651980226879061,4.324328473786639e-07,1.651774995097131,4.324328473786639e-07,1.651569751627022,4.324328473786639e-07,1.651364497820244,4.324328473786639e-07,1.651159235028374,4.324328473786639e-07,1.650953964603049,4.324328473786638e-07,1.650748687895955,4.324328473786638e-07,1.65054340625882
4.817178360503836e-07,1.6524344506406,4.817178360503836e-07,1.652663019838202,4.817178360503836e-07,1.652205861550071,4.817178360503836e-07,1.651977254434513,4.817178360503836e-07,1.651748631161971,4.817178360503836e-07,1.651519993600623,4.817178360503836e-07,1.651291343618763,4.817178360503836e-07,1.651062683084788,4.81717836050358e-07,1.650834013867178,4.81717836050358e-07,1.650605337834489
5.369177906330078e-07,1.652713311912256,5.369177906330078e-07,1.652968041397667,5.369177906330078e-07,1.652458554882812,5.369177906330078e-07,1.652203772895489,5.369177906330078e-07,1.65194896853669,5.369177906330078e-07,1.651694144393047,5.369177906330078e-07,1.651439303051394,5.369177906330078e-07,1.651184447098738,5.369177906329747e-07,1.650929579122234,5.369177906329747e-07,1.65067470170916
5.990051059863788e-07,1.653026927305103,5.990051059863788e-07,1.653311068878381,5.990051059863788e-07,1.652742747486782,5.990051059863788e-07,1.652458533014012,5.990051059863788e-07,1.652174287477828,5.990051059863788e-07,1.651890014469652,5.990051059863788e-07,1.651605717581259,5.990051059863788e-07,1.651321400404721,5.990051059863366e-07,1.65103706653237,5.990051059863366e-07,1.650752719556746
6.691492839498491e-07,1.653381183087299,6.691492839498491e-07,1.653698536050492,6.691492839498491e-07,1.653063776811892,6.691492839498491e-07,1.652746322228919,6.691492839498491e-07,1.652428824343789,6.691492839498491e-07,1.652111288162595,6.691492839498491e-07,1.651793718692034,6.691492839498491e-07,1.651476120939326,6.691492839498213e-07,1.651158499912138,6.691492839498213e-07,1.650840860618506
7.487567315146542e-07,1.653783151104518,7.487567315146542e-07,1.654138171070135,7.487567315146542e-07,1.653428056451554,7.487567315146542e-07,1.65307289412156,7.487567315146542e-07,1.652717671126185,7.487567315146542e-07,1.652362394478276,7.487567315146542e-07,1.652007071191741,7.487567315146542e-07,1.651651708281406,7.487567315145941e-07,1.651296312762882,7.487567315145941e-07,1.650940891652423
8.39518913057948e-07,1.654241326006351,8.39518913057948e-07,1.654639254664978,8.39518913057948e-07,1.653843292085074,8.39518913057948e-07,1.653445162779687,8.39518913057948e-07,1.653046947971097,8.39518913057948e-07,1.652648657542332,8.39518913057948e-07,1.652250301378297,8.39518913057948e-07,1.651851889365528,8.395189130578855e-07,1.651453431391949,8.395189130578855e-07,1.651054937346623
9.43470895017218e-07,1.65476591154905,9.43470895017218e-07,1.655212931264737,9.43470895017218e-07,1.654318742445805,9.43470895017218e-07,1.653871437971523,9.43470895017218e-07,1.65342401214697,9.43470895017218e-07,1.652976478996712,9.43470895017218e-07,1.652528852548683,9.43470895017218e-07,1.652081146833738,9.434708950171402e-07,1.65163337588522,9.434708950171402e-07,1.651185553738514
1.06306271633042e-06,1.655369166206855,1.06306271633042e-06,1.655872583826867,1.06306271633042e-06,1.65486553492068,1.06306271633042e-06,1.654361710010368,1.06306271633042e-06,1.653857711525648,1.06306271633042e-06,1.653353559523159,1.06306271633042e-06,1.652849274065648,1.06306271633042e-06,1.652344875221172,1.063062716330305e-06,1.651840383062303,1.063062716330305e-06,1.651335817665323
1.201246493238827e-06,1.656065819417331,1.201246493238827e-06,1.656634284023307,1.201246493238827e-06,1.655497046588759,1.201246493238827e-06,1.654927994438657,1.201246493238827e-06,1.654358691882281,1.201246493238827e-06,1.653789167847613,1.201246493238827e-06,1.653219451273888,1.201246493238827e-06,1.652649571110126,1.201246493238681e-06,1.652079556313657,1.201246493238681e-06,1.651509435848655
1.361582749965329e-06,1.656873570554595,1.361582749965329e-06,1.657517329829419,1.361582749965329e-06,1.65622936255434,1.361582749965329e-06,1.65558474788431,1.361582749965329e-06,1.654939768626708,1.361582749965329e-06,1.654294466887539,1.361582749965329e-06,1.65364888479386,1.361582749965329e-06,1.653003064491032,1.361582749965209e-06,1.652357048139963,1.361582749965209e-06,1.651710877914365
1.548370182706216e-06,1.657813682697542,1.548370182706216e-06,1.658544881749357,1.548370182706216e-06,1.657081823993725,1.548370182706216e-06,1.656349367423378,1.548370182706216e-06,1.655616374822444,1.548370182706216e-06,1.65488290807212,1.548370182706216e-06,1.654149029093631,1.548370182706216e-06,1.653414799843004,1.548370182706019e-06,1.652680282305837,1.548370182706019e-06,1.651945538492066
1.766803938356387e-06,1.658911681540982,1.766803938356387e-06,1.659744705725675,1.766803938356387e-06,1.658077677764881,1.766803938356387e-06,1.657242786072881,1.766803938356387e-06,1.656407098238091,1.766803938356387e-06,1.655570706121136,1.766803938356387e-06,1.654733701660054,1.766803938356387e-06,1.653896176860195,1.766803938356148e-06,1.653058223784106,1.766803938356148e-06,1.652219934541411
2.023168548604284e-06,1.660198164767945,2.023168548604284e-06,1.661150023076914,2.023168548604284e-06,1.659244836539625,2.023168548604284e-06,1.658290175800561,2.023168548604284e-06,1.657334320151421,2.023168548604284e-06,1.656377407365105,2.023168548604284e-06,1.655419575366881,2.023168548604284e-06,1.654460962214509,2.023168548603971e-06,1.653501706078342,2.023168548603971e-06,1.65254194522141
2.325072936639554e-06,1.661709716006225,2.325072936639554e-06,1.662800451835019,2.325072936639554e-06,1.660616751099746,2.325072936639554e-06,1.659521765173888,2.325072936639554e-06,1.658424966671683,2.325072936639554e-06,1.657326564381205,2.325072936639554e-06,1.656226767395829,2.325072936639554e-06,1.655125785074425,2.325072936639373e-06,1.654023827001507,2.325072936639373e-06,1.652921102947333
2.681736448077387e-06,1.663489895143295,2.681736448077387e-06,1.664742993092302,2.681736448077387e-06,1.662233380987376,2.681736448077387e-06,1.660973768826598,2.681736448077387e-06,1.659711377647562,2.681736448077387e-06,1.658446527140628,2.681736448077387e-06,1.657179537618966,2.681736448077387e-06,1.65591072993743,2.681736448077103e-06,1.654640425411311,2.681736448077103e-06,1.653368945734964
3.104336702334852e-06,1.665590234605754,3.104336702334852e-06,1.667032959135729,3.104336702334852e-06,1.66414221965059,3.104336702334852e-06,1.662689405642883,3.104336702334852e-06,1.661232285583795,3.104336702334852e-06,1.659771353935718,3.104336702334852e-06,1.658307106454474,3.104336702334852e-06,1.656840040021089,3.104336702334314e-06,1.655370652473176,3.104336702334314e-06,1.653899442436005
3.60643228555628e-06,1.668071094254298,3.60643228555628e-06,1.669734637860898,3.60643228555628e-06,1.666399274351803,3.60643228555628e-06,1.664719943822388,3.60643228555628e-06,1.663033871774783,3.60643228555628e-06,1.661341830405236,3.60643228555628e-06,1.659644594643856,3.60643228555628e-06,1.657942941799706,3.60643228555548e-06,1.656237651204809,3.60643228555548e-06,1.654529503857228
4.204476005584118e-06,1.671002090135598,4.204476005584118e-06,1.672921307202366,4.204476005584118e-06,1.669069800037108,4.204476005584118e-06,1.667125639686695,4.204476005584118e-06,1.665170819252954,4.204476005584118e-06,1.663206555539993,4.204476005584118e-06,1.661234071230015,4.204476005584118e-06,1.659254594122244,4.20447600558301e-06,1.65726935636866,4.20447600558301e-06,1.655279593707044
4.918437730881657e-06,1.67446157093588,4.918437730881657e-06,1.676673898617595,4.918437730881657e-06,1.672228406962003,4.918437730881657e-06,1.669976308898282,4.918437730881657e-06,1.667707195075042,4.918437730881657e-06,1.665422998316574,4.918437730881657e-06,1.663125664294771,4.918437730881657e-06,1.660817149871808,4.91843773088017e-06,1.658499421433287,4.91843773088017e-06,1.656174453213291
