/Vpeak (frequency=2500) X,/Vpeak (frequency=2500) Y,/Vpeak (frequency=3444.444) X,/Vpeak (frequency=3444.444) Y,/Vpeak (frequency=4388.889) X,/Vpeak (frequency=4388.889) Y,/Vpeak (frequency=5333.333) X,/Vpeak (frequency=5333.333) Y,/Vpeak (frequency=6277.778) X,/Vpeak (frequency=6277.778) Y,/Vpeak (frequency=8166.667) X,/Vpeak (frequency=8166.667) Y,/Vpeak (frequency=7222.222) X,/Vpeak (frequency=7222.222) Y,/Vpeak (frequency=9111.111) X,/Vpeak (frequency=9111.111) Y,/Vpeak (frequency=10055.56) X,/Vpeak (frequency=10055.56) Y,/Vpeak (frequency=11000) X,/Vpeak (frequency=11000) Y
0,5.92395124332165e-05,0,5.923951243321651e-05,0,5.92395124332165e-05,0,5.92395124332165e-05,0,5.92395124332165e-05,0,5.92395124332165e-05,0,5.92395124332165e-05,0,5.92395124332165e-05,0,5.92395124332165e-05,0,5.92395124332165e-05
2.554328917427625e-10,0.002320000069953802,2.554328917427625e-10,0.002320000069953802,2.554328917427625e-10,0.002320000069953802,2.554328917427625e-10,0.002320000069953802,2.554328917427625e-10,0.002320000069953802,2.554328917427625e-10,0.002320000069953802,2.554328917427625e-10,0.002320000069953802,2.554328917427625e-10,0.002320000069953802,2.554328917427625e-10,0.002320000069953802,2.554328917427625e-10,0.002320000069953802
4.42100055674813e-10,0.003968616971764039,4.42100055674813e-10,0.003968616971764039,4.42100055674813e-10,0.003968616971764039,4.42100055674813e-10,0.003968616971764039,4.42100055674813e-10,0.003968616971764039,4.42100055674813e-10,0.003968616971764039,4.42100055674813e-10,0.003968616971764039,4.42100055674813e-10,0.003968616971764039,4.42100055674813e-10,0.003968616971764039,4.42100055674813e-10,0.003968616971764039
8.15434383538914e-10,0.007257731763932418,8.15434383538914e-10,0.007257731763932418,8.15434383538914e-10,0.007257731763932419,8.15434383538914e-10,0.007257731763932419,8.15434383538914e-10,0.007257731763932419,8.15434383538914e-10,0.007257731763932419,8.15434383538914e-10,0.007257731763932419,8.15434383538914e-10,0.007257731763932419,8.15434383538914e-10,0.007257731763932419,8.15434383538914e-10,0.007257731763932419
1.562103039267116e-09,0.0137977596197228,1.562103039267116e-09,0.0137977596197228,1.562103039267116e-09,0.01379775961972279,1.562103039267116e-09,0.01379775961972279,1.562103039267116e-09,0.01379775961972279,1.562103039267116e-09,0.01379775961972279,1.562103039267116e-09,0.01379775961972279,1.562103039267116e-09,0.01379775961972279,1.562103039267116e-09,0.01379775961972279,1.562103039267116e-09,0.01379775961972279
2.838007746896043e-09,0.02485354505748757,2.838007746896043e-09,0.02485354505748757,2.838007746895398e-09,0.02485354505748203,2.838007746895398e-09,0.02485354505748203,2.838007746895398e-09,0.02485354505748203,2.838007746895398e-09,0.02485354505748203,2.838007746895398e-09,0.02485354505748203,2.838007746895398e-09,0.02485354505748203,2.838007746895398e-09,0.02485354505748203,2.838007746895398e-09,0.02485354505748203
5.389817162153896e-09,0.04652006158356695,5.389817162153896e-09,0.04652006158356695,5.389817162151963e-09,0.04652006158355075,5.389817162151963e-09,0.04652006158355075,5.389817162151963e-09,0.04652006158355075,5.389817162151963e-09,0.04652006158355075,5.389817162151963e-09,0.04652006158355075,5.389817162151963e-09,0.04652006158355075,5.389817162151963e-09,0.04652006158355075,5.389817162151963e-09,0.04652006158355075
1.04934359926696e-08,0.08815695709948626,1.04934359926696e-08,0.08815695709948626,1.049343599266509e-08,0.08815695709945047,1.049343599266509e-08,0.08815695709945047,1.049343599266509e-08,0.08815695709945047,1.049343599266509e-08,0.08815695709945047,1.049343599266509e-08,0.08815695709945047,1.049343599266509e-08,0.08815695709945047,1.049343599266509e-08,0.08815695709945047,1.049343599266509e-08,0.08815695709945047
1.620482821142516e-08,0.1322317160817081,1.620482821142516e-08,0.1322317160817081,1.620482821141612e-08,0.1322317160816404,1.620482821141612e-08,0.1322317160816404,1.620482821141612e-08,0.1322317160816404,1.620482821141612e-08,0.1322317160816404,1.620482821141612e-08,0.1322317160816404,1.620482821141612e-08,0.1322317160816404,1.620482821141612e-08,0.1322317160816404,1.620482821141612e-08,0.1322317160816404
2.262203232248169e-08,0.1788162538368118,2.262203232248169e-08,0.1788162538368118,2.262203232247169e-08,0.1788162538367414,2.262203232247169e-08,0.1788162538367414,2.262203232247169e-08,0.1788162538367414,2.262203232247169e-08,0.1788162538367414,2.262203232247169e-08,0.1788162538367414,2.262203232247169e-08,0.1788162538367414,2.262203232247169e-08,0.1788162538367414,2.262203232247169e-08,0.1788162538367414
2.98938514422934e-08,0.2281702671885462,2.98938514422934e-08,0.2281702671885462,2.989385144228261e-08,0.2281702671884754,2.989385144228261e-08,0.2281702671884754,2.989385144228261e-08,0.2281702671884754,2.989385144228261e-08,0.2281702671884754,2.989385144228261e-08,0.2281702671884754,2.989385144228261e-08,0.2281702671884754,2.989385144228261e-08,0.2281702671884754,2.989385144228261e-08,0.2281702671884754
3.793948506359345e-08,0.2789210086532646,3.793948506359345e-08,0.2789210086532646,3.793948506358156e-08,0.2789210086531925,3.793948506358156e-08,0.2789210086531925,3.793948506358156e-08,0.2789210086531925,3.793948506358156e-08,0.2789210086531925,3.793948506358156e-08,0.2789210086531925,3.793948506358156e-08,0.2789210086531925,3.793948506358156e-08,0.2789210086531925,3.793948506358156e-08,0.2789210086531925
4.683030533746807e-08,0.3307680863037192,4.683030533746807e-08,0.3307680863037192,4.683030533745589e-08,0.3307680863036511,4.683030533745589e-08,0.3307680863036511,4.683030533745589e-08,0.3307680863036511,4.683030533745589e-08,0.3307680863036511,4.683030533745589e-08,0.3307680863036511,4.683030533745589e-08,0.3307680863036511,4.683030533745589e-08,0.3307680863036511,4.683030533745589e-08,0.3307680863036511
5.662915091614518e-08,0.3833153372211209,5.662915091614518e-08,0.3833153372211209,5.662915091613642e-08,0.3833153372210761,5.662915091613642e-08,0.3833153372210761,5.662915091613642e-08,0.3833153372210761,5.662915091613642e-08,0.3833153372210761,5.662915091613642e-08,0.3833153372210761,5.662915091613642e-08,0.3833153372210761,5.662915091613642e-08,0.3833153372210761,5.662915091613642e-08,0.3833153372210761
6.739118718961572e-08,0.4361114036788559,6.739118718961572e-08,0.4361114036788559,6.739118718960792e-08,0.4361114036788195,6.739118718960792e-08,0.4361114036788195,6.739118718960792e-08,0.4361114036788195,6.739118718960792e-08,0.4361114036788195,6.739118718960792e-08,0.4361114036788195,6.739118718960792e-08,0.4361114036788195,6.739118718960792e-08,0.4361114036788195,6.739118718960792e-08,0.4361114036788195
7.918994147781869e-08,0.4887940751824852,7.918994147781869e-08,0.4887940751824852,7.918994147780802e-08,0.4887940751824399,7.918994147780802e-08,0.4887940751824399,7.918994147780802e-08,0.4887940751824399,7.918994147780802e-08,0.4887940751824399,7.918994147780802e-08,0.4887940751824399,7.918994147780802e-08,0.4887940751824399,7.918994147780802e-08,0.4887940751824399,7.918994147780802e-08,0.4887940751824399
9.210844508515769e-08,0.5410324085244385,9.210844508515769e-08,0.5410324085244385,9.210844508514843e-08,0.5410324085244033,9.210844508514843e-08,0.5410324085244033,9.210844508514843e-08,0.5410324085244033,9.210844508514843e-08,0.5410324085244033,9.210844508514843e-08,0.5410324085244033,9.210844508514843e-08,0.5410324085244033,9.210844508514843e-08,0.5410324085244033,9.210844508514843e-08,0.5410324085244033
1.062422274558718e-07,0.5925341902229574,1.062422274558718e-07,0.5925341902229574,1.062422274558599e-07,0.5925341902229166,1.062422274558599e-07,0.5925341902229166,1.062422274558599e-07,0.5925341902229166,1.062422274558599e-07,0.5925341902229166,1.062422274558599e-07,0.5925341902229166,1.062422274558599e-07,0.5925341902229166,1.062422274558599e-07,0.5925341902229166,1.062422274558599e-07,0.5925341902229166
1.217018714692356e-07,0.6430468753072878,1.217018714692356e-07,0.6430468753072878,1.217018714692215e-07,0.6430468753072442,1.217018714692215e-07,0.6430468753072442,1.217018714692215e-07,0.6430468753072442,1.217018714692215e-07,0.6430468753072442,1.217018714692215e-07,0.6430468753072442,1.217018714692215e-07,0.6430468753072442,1.217018714692215e-07,0.6430468753072442,1.217018714692215e-07,0.6430468753072442
1.386135722689618e-07,0.6923502019694492,1.386135722689618e-07,0.6923502019694492,1.386135722689453e-07,0.6923502019694036,1.386135722689453e-07,0.6923502019694036,1.386135722689453e-07,0.6923502019694036,1.386135722689453e-07,0.6923502019694036,1.386135722689453e-07,0.6923502019694036,1.386135722689453e-07,0.6923502019694036,1.386135722689453e-07,0.6923502019694036,1.386135722689453e-07,0.6923502019694036
1.571208817038167e-07,0.740253903101917,1.571208817038167e-07,0.740253903101917,1.57120881703795e-07,0.7402539031018639,1.57120881703795e-07,0.7402539031018639,1.57120881703795e-07,0.7402539031018639,1.57120881703795e-07,0.7402539031018639,1.57120881703795e-07,0.7402539031018639,1.57120881703795e-07,0.7402539031018639,1.57120881703795e-07,0.7402539031018639,1.57120881703795e-07,0.7402539031018639
1.77386868062306e-07,0.7865964969400044,1.77386868062306e-07,0.7865964969400044,1.773868680622844e-07,0.7865964969399578,1.773868680622844e-07,0.7865964969399578,1.773868680622844e-07,0.7865964969399578,1.773868680622844e-07,0.7865964969399578,1.773868680622844e-07,0.7865964969399578,1.773868680622844e-07,0.7865964969399578,1.773868680622844e-07,0.7865964969399578,1.773868680622844e-07,0.7865964969399578
1.995969744582858e-07,0.8312453482592298,1.995969744582858e-07,0.8312453482592298,1.995969744582714e-07,0.8312453482592025,1.995969744582714e-07,0.8312453482592025,1.995969744582714e-07,0.8312453482592025,1.995969744582714e-07,0.8312453482592025,1.995969744582714e-07,0.8312453482592025,1.995969744582714e-07,0.8312453482592025,1.995969744582714e-07,0.8312453482592025,1.995969744582714e-07,0.8312453482592025
2.239630510970221e-07,0.8740980117839604,2.239630510970221e-07,0.8740980117839604,2.239630510970115e-07,0.8740980117839432,2.239630510970115e-07,0.8740980117839432,2.239630510970115e-07,0.8740980117839432,2.239630510970115e-07,0.8740980117839432,2.239630510970115e-07,0.8740980117839432,2.239630510970115e-07,0.8740980117839432,2.239630510970115e-07,0.8740980117839432,2.239630510970115e-07,0.8740980117839432
2.507288501087565e-07,0.9150839800034046,2.507288501087565e-07,0.9150839800034046,2.507288501087413e-07,0.9150839800033832,2.507288501087413e-07,0.9150839800033832,2.507288501087413e-07,0.9150839800033832,2.507288501087413e-07,0.9150839800033832,2.507288501087413e-07,0.9150839800033832,2.507288501087413e-07,0.9150839800033832,2.507288501087413e-07,0.9150839800033832,2.507288501087413e-07,0.9150839800033832
2.801773644238166e-07,0.9541660891126929,2.801773644238166e-07,0.9541660891126929,2.801773644238095e-07,0.9541660891126842,2.801773644238095e-07,0.9541660891126842,2.801773644238095e-07,0.9541660891126842,2.801773644238095e-07,0.9541660891126842,2.801773644238095e-07,0.9541660891126842,2.801773644238095e-07,0.9541660891126842,2.801773644238095e-07,0.9541660891126842,2.801773644238095e-07,0.9541660891126842
3.126403379032901e-07,0.9913408225203073,3.126403379032901e-07,0.9913408225203073,3.126403379032845e-07,0.9913408225203014,3.126403379032845e-07,0.9913408225203014,3.126403379032845e-07,0.9913408225203014,3.126403379032845e-07,0.9913408225203014,3.126403379032845e-07,0.9913408225203014,3.126403379032845e-07,0.9913408225203014,3.126403379032845e-07,0.9913408225203014,3.126403379032845e-07,0.9913408225203014
3.485101732485141e-07,1.026636941138855,3.485101732485141e-07,1.026636941138855,3.485101732485073e-07,1.026636941138849,3.485101732485073e-07,1.026636941138849,3.485101732485073e-07,1.026636941138849,3.485101732485073e-07,1.026636941138849,3.485101732485073e-07,1.026636941138849,3.485101732485073e-07,1.026636941138849,3.485101732485073e-07,1.026636941138849,3.485101732485073e-07,1.026636941138849
3.882543978051035e-07,1.060112266044271,3.882543978051035e-07,1.060112266044271,3.882543978051134e-07,1.060112266044279,3.882543978051134e-07,1.060112266044279,3.882543978051134e-07,1.060112266044279,3.882543978051134e-07,1.060112266044279,3.882543978051134e-07,1.060112266044279,3.882543978051134e-07,1.060112266044279,3.882543978051134e-07,1.060112266044279,3.882543978051134e-07,1.060112266044279
4.324328473786638e-07,1.091848871835994,4.324328473786638e-07,1.091848871835994,4.324328473786639e-07,1.091848871835994,4.324328473786639e-07,1.091848871835994,4.324328473786639e-07,1.091848871835994,4.324328473786639e-07,1.091848871835994,4.324328473786639e-07,1.091848871835994,4.324328473786639e-07,1.091848871835994,4.324328473786639e-07,1.091848871835994,4.324328473786639e-07,1.091848871835994
4.81717836050358e-07,1.121947284619339,4.81717836050358e-07,1.121947284619339,4.817178360503836e-07,1.121947284619354,4.817178360503836e-07,1.121947284619354,4.817178360503836e-07,1.121947284619354,4.817178360503836e-07,1.121947284619354,4.817178360503836e-07,1.121947284619354,4.817178360503836e-07,1.121947284619354,4.817178360503836e-07,1.121947284619354,4.817178360503836e-07,1.121947284619354
5.369177906329747e-07,1.150520416070083,5.369177906329747e-07,1.150520416070083,5.369177906330078e-07,1.150520416070099,5.369177906330078e-07,1.150520416070099,5.369177906330078e-07,1.150520416070099,5.369177906330078e-07,1.150520416070099,5.369177906330078e-07,1.150520416070099,5.369177906330078e-07,1.150520416070099,5.369177906330078e-07,1.150520416070099,5.369177906330078e-07,1.150520416070099
5.990051059863366e-07,1.177687896627489,5.990051059863366e-07,1.177687896627489,5.990051059863788e-07,1.177687896627507,5.990051059863788e-07,1.177687896627507,5.990051059863788e-07,1.177687896627507,5.990051059863788e-07,1.177687896627507,5.990051059863788e-07,1.177687896627507,5.990051059863788e-07,1.177687896627507,5.990051059863788e-07,1.177687896627507,5.990051059863788e-07,1.177687896627507
6.691492839498213e-07,1.203571267653978,6.691492839498213e-07,1.203571267653978,6.691492839498491e-07,1.203571267653989,6.691492839498491e-07,1.203571267653989,6.691492839498491e-07,1.203571267653989,6.691492839498491e-07,1.203571267653989,6.691492839498491e-07,1.203571267653989,6.691492839498491e-07,1.203571267653989,6.691492839498491e-07,1.203571267653989,6.691492839498491e-07,1.203571267653989
7.487567315145941e-07,1.228290249619449,7.487567315145941e-07,1.228290249619449,7.487567315146542e-07,1.228290249619466,7.487567315146542e-07,1.228290249619466,7.487567315146542e-07,1.228290249619466,7.487567315146542e-07,1.228290249619466,7.487567315146542e-07,1.228290249619466,7.487567315146542e-07,1.228290249619466,7.487567315146542e-07,1.228290249619466,7.487567315146542e-07,1.228290249619466
8.395189130578855e-07,1.251960095672199,8.395189130578855e-07,1.251960095672199,8.39518913057948e-07,1.251960095672215,8.39518913057948e-07,1.251960095672215,8.39518913057948e-07,1.251960095672215,8.39518913057948e-07,1.251960095672215,8.39518913057948e-07,1.251960095672215,8.39518913057948e-07,1.251960095672215,8.39518913057948e-07,1.251960095672215,8.39518913057948e-07,1.251960095672215
9.434708950171402e-07,1.274689902772144,9.434708950171402e-07,1.274689902772144,9.43470895017218e-07,1.274689902772161,9.43470895017218e-07,1.274689902772161,9.43470895017218e-07,1.274689902772161,9.43470895017218e-07,1.274689902772161,9.43470895017218e-07,1.274689902772161,9.43470895017218e-07,1.274689902772161,9.43470895017218e-07,1.274689902772161,9.43470895017218e-07,1.274689902772161
1.063062716330305e-06,1.296581687206432,1.063062716330305e-06,1.296581687206432,1.06306271633042e-06,1.296581687206452,1.06306271633042e-06,1.296581687206452,1.06306271633042e-06,1.296581687206452,1.06306271633042e-06,1.296581687206452,1.06306271633042e-06,1.296581687206452,1.06306271633042e-06,1.296581687206452,1.06306271633042e-06,1.296581687206452,1.06306271633042e-06,1.296581687206452
1.201246493238681e-06,1.317730020373472,1.201246493238681e-06,1.317730020373472,1.201246493238827e-06,1.317730020373493,1.201246493238827e-06,1.317730020373493,1.201246493238827e-06,1.317730020373493,1.201246493238827e-06,1.317730020373493,1.201246493238827e-06,1.317730020373493,1.201246493238827e-06,1.317730020373493,1.201246493238827e-06,1.317730020373493,1.201246493238827e-06,1.317730020373493
1.361582749965209e-06,1.338222042150778,1.361582749965209e-06,1.338222042150778,1.361582749965329e-06,1.338222042150793,1.361582749965329e-06,1.338222042150793,1.361582749965329e-06,1.338222042150793,1.361582749965329e-06,1.338222042150793,1.361582749965329e-06,1.338222042150793,1.361582749965329e-06,1.338222042150793,1.361582749965329e-06,1.338222042150793,1.361582749965329e-06,1.338222042150793
1.548370182706019e-06,1.358137704503086,1.548370182706019e-06,1.358137704503086,1.548370182706216e-06,1.358137704503106,1.548370182706216e-06,1.358137704503106,1.548370182706216e-06,1.358137704503106,1.548370182706216e-06,1.358137704503106,1.548370182706216e-06,1.358137704503106,1.548370182706216e-06,1.358137704503106,1.548370182706216e-06,1.358137704503106,1.548370182706216e-06,1.358137704503106
1.766803938356148e-06,1.3775501351913,1.766803938356148e-06,1.3775501351913,1.766803938356387e-06,1.37755013519132,1.766803938356387e-06,1.37755013519132,1.766803938356387e-06,1.37755013519132,1.766803938356387e-06,1.37755013519132,1.766803938356387e-06,1.37755013519132,1.766803938356387e-06,1.37755013519132,1.766803938356387e-06,1.37755013519132,1.766803938356387e-06,1.37755013519132
2.023168548603971e-06,1.3965260443388,2.023168548603971e-06,1.3965260443388,2.023168548604284e-06,1.396526044338821,2.023168548604284e-06,1.396526044338821,2.023168548604284e-06,1.396526044338821,2.023168548604284e-06,1.396526044338821,2.023168548604284e-06,1.396526044338821,2.023168548604284e-06,1.396526044338821,2.023168548604284e-06,1.396526044338821,2.023168548604284e-06,1.396526044338821
2.325072936639373e-06,1.415126123128815,2.325072936639373e-06,1.415126123128815,2.325072936639554e-06,1.415126123128825,2.325072936639554e-06,1.415126123128825,2.325072936639554e-06,1.415126123128825,2.325072936639554e-06,1.415126123128825,2.325072936639554e-06,1.415126123128825,2.325072936639554e-06,1.415126123128825,2.325072936639554e-06,1.415126123128825,2.325072936639554e-06,1.415126123128825
2.681736448077103e-06,1.433405404257508,2.681736448077103e-06,1.433405404257508,2.681736448077387e-06,1.433405404257521,2.681736448077387e-06,1.433405404257521,2.681736448077387e-06,1.433405404257521,2.681736448077387e-06,1.433405404257521,2.681736448077387e-06,1.433405404257521,2.681736448077387e-06,1.433405404257521,2.681736448077387e-06,1.433405404257521,2.681736448077387e-06,1.433405404257521
3.104336702334314e-06,1.451413569111785,3.104336702334314e-06,1.451413569111785,3.104336702334852e-06,1.451413569111805,3.104336702334852e-06,1.451413569111805,3.104336702334852e-06,1.451413569111805,3.104336702334852e-06,1.451413569111805,3.104336702334852e-06,1.451413569111805,3.104336702334852e-06,1.451413569111805,3.104336702334852e-06,1.451413569111805,3.104336702334852e-06,1.451413569111805
3.60643228555548e-06,1.469195198273047,3.60643228555548e-06,1.469195198273047,3.60643228555628e-06,1.469195198273073,3.60643228555628e-06,1.469195198273073,3.60643228555628e-06,1.469195198273073,3.60643228555628e-06,1.469195198273073,3.60643228555628e-06,1.469195198273073,3.60643228555628e-06,1.469195198273073,3.60643228555628e-06,1.469195198273073,3.60643228555628e-06,1.469195198273073
4.20447600558301e-06,1.486789970900778,4.20447600558301e-06,1.486789970900778,4.204476005584118e-06,1.486789970900807,4.204476005584118e-06,1.486789970900807,4.204476005584118e-06,1.486789970900807,4.204476005584118e-06,1.486789970900807,4.204476005584118e-06,1.486789970900807,4.204476005584118e-06,1.486789970900807,4.204476005584118e-06,1.486789970900807,4.204476005584118e-06,1.486789970900807
